# Hz Z MA R 1
0.001 159.1518031861603 -89.63999060464067  3.387931161827635e-021 89.64001895312691  0 0  0 0  
   159154.9447154052 90.00045586763146  159154.9446763111 -89.99954405459737  0 0  0 0  
   15915.49443160103 90.00360189028622  2.775559678866058e-017 -0.007097606303143077  15915.49443584461 -89.99639803189149  0 0  
   1591.549133001827 90.03600138994401  3.469424025372315e-018 179.9919810611087  0 0  1591.549132543338 -89.96399853298061  
0.00105519647889024 150.8263626723478 -89.62011814681991  0 0  0 0  0 0  
   150829.6775590885 90.00043208407297  150829.6775636676 -89.99956790472187  0 0  0 0  
   15082.96771913342 90.00380243309306  0 0  15082.96772353961 -89.99619756223699  0 0  
   1508.296444307002 90.03798550530307  0 0  0 0  1508.296444190873 -89.96201448336097  
0.00111343960906236 142.936400632785 -89.59914853139014  0 0  0 0  0 0  
   142939.8985010184 90.00040962732156  142939.8984758809 -89.99959050719843  0 0  0 0  
   14293.98981729029 90.00401316677059  6.776263528248084e-021 -90.00400838252637  14293.98981298483 -89.99598697202052  0 0  
   1429.398635352569 90.04008540337982  3.469451022236712e-018 -179.9281781222998  0 0  1429.398635016273 -89.95991473225089  
0.00117489755493953 135.4591364981447 -89.5770216402896  0 0  0 0  0 0  
   135462.8273548687 90.00038794851848  135462.8273820585 -89.99961192737617  0 0  0 0  
   13546.2826981245 90.00422986325334  0 0  13546.28270125922 -89.99577001065073  0 0  
   1354.627905191401 90.04229592447437  0 0  0 0  1354.627904834675 -89.95770394912536  
0.00123974776302894 128.3729812647001 -89.55367267506075  0 0  0 0  0 0  
   128376.8758820659 90.00036784939114  128376.8758717869 -89.99963222748762  0 0  0 0  
   12837.6875501458 90.00445012875744  0 0  12837.68754890478 -89.99554995079714  0 0  
   1283.768369122737 90.04462933787472  0 0  0 0  1283.768369265578 -89.95537074272902  
0.00130817747426019 121.6574752268922 -89.52903502741238  0 0  0 0  0 0  
   121661.5847806982 90.00034840462341  121661.5847747346 -89.99965146533914  0 0  0 0  
   12166.15843365003 90.00470509428629  0 0  12166.15843667538 -89.99529478060801  0 0  
   1216.615436635584 90.047093942977  0 0  0 0  1216.615436808309 -89.95290592927759  
0.00138038426460288 115.2932287919114 -89.503036841248  0 0  0 0  0 0  
   115297.5651073285 90.00066051160165  115297.5651390145 -89.99933939371421  0 0  0 0  
   11529.75647072665 90.00495445822811  0 0  11529.75647194068 -89.99504545201071  0 0  
   1152.975218120172 90.04969408794798  0 0  0 0  1152.97521781472 -89.95030582222542  
0.00145657661552446 109.2618666129493 -89.47560316613628  6.775412317571595e-021 -90.52430901701278  0 0  0 0  
   109266.4422845339 90.00062602899023  109266.4422359882 -89.99937394946272  0 0  0 0  
   10926.64418281787 90.00525880167578  5.551121263619797e-017 179.9982522058103  10926.64417928183 -89.99474117490668  0 0  
   1092.6639650697 90.05243805128262  6.201069060232092e-023 178.89885743  0 0  1092.663965045056 -89.94756192867283  
0.00153697451593527 103.5459744103303 -89.44665477111306  0 0  0 0  0 0  
   103550.8026373072 90.00059331125746  103550.8026180102 -89.99940669746094  0 0  0 0  
   10355.0802161329 90.00554738351802  0 0  10355.08021002507 -89.99445262251371  0 0  
   1035.507543763085 90.0553314785103  0 0  0 0  1035.507543398139 -89.94466853258635  
0.00162181009735893 98.12904876708544 -89.41610786591146  0 0  0 0  0 0  
   98134.14346761291 90.00056235807631  98134.14344064503 -89.99943773267032  0 0  0 0  
   9813.41429834756 90.00584766453312  0 0  9813.414293416752 -89.99415242079384  0 0  
   981.3409249830437 90.05838601082682  3.388126511686379e-021 89.94161491792723  0 0  981.3409248206808 -89.94161407036366  
0.00171132830416178 92.99544951889119 -89.38387424717156  2.169086687869841e-019 -2.40589381985479  0 0  0 0  
   93000.82531829905 90.00053293807012  93000.82528956553 -89.99946714455051  0 0  0 0  
   9300.08248051798 90.00615455706399  2.775570091342658e-017 -179.9803703487737  9300.08247796119 -89.99384551911203  0 0  
   930.0077156500557 90.06160894690665  2.33246135997767e-021 -93.08362721824607  0 0  930.0077154265143 -89.93839113089949  
0.00180578760077672 88.13035446946853 -89.34986077572536  0 0  0 0  0 0  
   88136.02692513872 90.00075736928156  88136.02692813435 -89.99924252672169  0 0  0 0  
   8813.602641053729 90.0064889195537  0 0  8813.602640289973 -89.9935109781061  0 0  
   881.3597020497441 90.06500893160678  0 0  0 0  881.3597021363927 -89.93499097227796  
0.00190546071796325 83.51971677251709 -89.31396847677354  0 0  0 0  0 0  
   83525.70230135327 90.00071796447531  83525.70230800747 -89.99928214947732  0 0  0 0  
   8352.570167755888 90.00686755343871  0 0  8352.570168478958 -89.9931325630491  0 0  
   835.2564241943865 90.06859569017637  0 0  0 0  835.2564242844699 -89.93140443200181  
0.00201063544025849 79.15022415512048 -89.27609421650904  0 0  0 0  0 0  
   79156.54000814585 90.00068031929916  79156.54003359073 -89.99931969959862  0 0  0 0  
   7915.653934468531 90.00723387808736  0 0  7915.653937414105 -89.99276613941908  0 0  
   791.5647684823117 90.07238189330222  0 0  0 0  791.5647687161077 -89.92761811792504  
0.00212161543689268 75.00926073073468 -89.2361278868209  0 0  0 0  0 0  
   75015.92510630109 90.00085969069271  75015.92509107861 -89.99914038078049  0 0  0 0  
   7501.592443011431 90.00762919570931  0 0  7501.592443658058 -89.99237087952898  0 0  
   750.1585846166103 90.07637746434028  0 0  0 0  750.1585846102122 -89.92362260955935  
0.00223872113856834 71.0848702951495 -89.19395405803735  0 0  0 0  0 0  
   71091.9023675225 90.00081467447041  71091.90237249556 -89.99918534674686  0 0  0 0  
   7109.190170847949 90.0080650942852  0 0  7109.190169634348 -89.99193493313565  0 0  
   710.9183204384004 90.08059393533767  0 0  0 0  710.9183204924203 -89.91940609386423  
0.00236229066263446 67.36572205757685 -89.14945050230388  0 0  0 0  0 0  
   67373.14217147681 90.00077199512307  67373.14217213265 -89.9992279605339  0 0  0 0  
   6737.31414245277 90.00851169110523  0 0  6737.314142033432 -89.9914882659744  0 0  
   673.730679842683 90.08504232986802  0 0  0 0  673.7306796923448 -89.91495762435592  
0.00249268078932718 63.84107778223164 -89.10248820154784  0 0  0 0  0 0  
   63848.90733669842 90.00091453240168  63848.90731467148 -89.99908543175519  0 0  0 0  
   6384.890654417254 90.00898102991269  0 0  6384.890651962872 -89.9910189396291  0 0  
   638.488290132674 90.0897359354574  0 0  0 0  638.4882900263252 -89.91026402765499  
0.00263026799189538 60.50076080533837 -89.05293106337962  0 0  0 0  0 0  
   60509.02233950517 90.00086676597334  60509.0223354439 -89.99913327203331  0 0  0 0  
   6050.902151971261 90.00946471496553  0 0  6050.90215145915 -89.99053533090533  0 0  
   605.0893972100333 90.09469049765401  0 0  0 0  605.0893971044703 -89.90530954581357  
0.00277544952358571 57.33512671550285 -89.00063553413531  0 0  0 0  0 0  
   57343.84405142906 90.00098572665898  57343.84404801595 -89.99901433191782  0 0  0 0  
   5734.384317774172 90.00998816820024  0 0  5734.384318362511 -89.99001189633961  0 0  
   573.4375686847201 90.09991609974627  0 0  0 0  573.4375687907528 -89.90008396371131  
0.00292864456462524 54.33503544376673 -88.94544993848484  0 0  0 0  0 0  
   54344.23371234054 90.00108980020042  54344.23370886764 -89.99891020676948  0 0  0 0  
   5434.423278687195 90.01053986375472  0 0  5434.423278473062 -89.98946014103616  0 0  
   543.4414172197495 90.105431884634  0 0  0 0  543.4414171920208 -89.89456812755721  
0.00309029543251359 51.49182485731305 -88.88721405006281  0 0  0 0  0 0  
   51501.53054865482 90.00118027729053  51501.5305548436 -89.99881967186825  0 0  0 0  
   5150.152959936426 90.01112454907837  0 0  5150.152960235684 -89.98887540662193  0 0  
   515.0143347398779 90.11125100013335  0 0  0 0  515.0143348289411 -89.88874894789822  
0.00326086885911893 48.79728584033747 -88.8257586569536  0 0  0 0  0 0  
   48807.52691884077 90.00111858696978  48807.5269239038 -89.99888141397108  0 0  0 0  
   4880.752591858294 90.0117451503726  0 0  4880.75259176128 -89.98825484490818  0 0  
   488.0742448646074 90.11739223886499  0 0  0 0  488.0742449061105 -89.88260776000578  
0.00344085733826513 46.24363848046208 -88.76090538459521  0 0  0 0  0 0  
   46254.44445707355 90.0011925297604  46254.44446770222 -89.99880741708074  0 0  0 0  
   4625.444338274414 90.0123895570047  0 0  4625.444339233513 -89.98761038672889  0 0  
   462.5433636049261 90.12387186051848  0 0  0 0  462.5433637067398 -89.87612808866291  
0.00363078054770101 43.82350971796119 -88.69246541803209  0 0  0 0  0 0  
   43834.9116806801 90.00125580847292  43834.91167780709 -89.9987442223696  0 0  0 0  
   4383.49105573187 90.01307267596539  0 0  4383.491054911829 -89.98692735282843  0 0  
   438.3479763687542 90.13070878875695  0 0  0 0  438.3479763303769 -89.86929124251105  
0.00383118684955729 41.5299119306229 -88.62023979683477  0 0  0 0  0 0  
   41541.94270782465 90.00142815527101  41541.94270823288 -89.99857189319612  0 0  0 0  
   4154.194152043067 90.01379318547261  0 0  4154.194152117912 -89.98620686719909  0 0  
   415.4182236669408 90.13792317669133  0 0  0 0  415.4182236866344 -89.86207687411297  
0.00404265487362344 39.35622289777993 -88.54401816746351  0 0  0 0  0 0  
   39368.91711884767 90.00146616636508  39368.91711553952 -89.99853381270692  0 0  0 0  
   3936.891585741055 90.01454907058171  0 0  3936.891585952993 -89.98545090889805  0 0  
   393.6879012072087 90.14553642123711  0 0  0 0  393.6879012079353 -89.85446355410204  
0.00426579518801593 37.29616657857393 -88.46357806040092  0 0  0 0  0 0  
   37309.56073441451 90.00149642229155  37309.56072908954 -89.99850362377494  0 0  0 0  
   3730.955940618608 90.01535928614121  0 0  3730.955940353786 -89.98464076472597  0 0  
   373.0942673226338 90.15356963376077  0 0  0 0  373.0942672781036 -89.84643041033291  
0.00450125206206134 35.34379502243104 -88.37868498529815  0 0  0 0  0 0  
   35357.92762352038 90.00162065925841  35357.92762671327 -89.99837931192077  0 0  0 0  
   3535.792621976811 90.01620684835342  0 0  3535.792622036353 -89.9837931176352  0 0  
   353.5778622897686 90.16204560393811  0 0  0 0  353.5778622868269 -89.83795436089848  
0.00474970532648456 33.49347121861577 -88.2890906152028  0 0  0 0  0 0  
   33508.38286945604 90.00172786987638  33508.38287101796 -89.99827209997592  0 0  0 0  
   3350.838139531289 90.01709658628074  0 0  3350.838139930607 -89.98290338664543  0 0  
   335.0823367710516 90.17099069046505  0 0  0 0  335.0823367634795 -89.82900927501808  
0.00501187233627272 31.73985279232722 -88.19453280203  0 0  0 0  0 0  
   31755.58632174455 90.00181947234732  31755.58631934697 -89.99818053889361  0 0  0 0  
   3175.558475988257 90.01803997458391  0 0  3175.558476054263 -89.98196004048238  0 0  
   317.5542888597174 90.18042894349856  0 0  0 0  317.5542888484937 -89.81957107040462  
0.00528851004188238 30.0778765863519 -88.09473447740919  0 0  0 0  0 0  
   30094.47714454652 90.00189675394861  30094.47714427939 -89.99810328485147  0 0  0 0  
   3009.447550390411 90.01903616513583  0 0  3009.447550181679 -89.98096387322899  0 0  
   300.943110208941 90.19038804608539  0 0  0 0  300.9431101991088 -89.80961198587565  
0.00558041717476996 28.50274405313959 -87.98940272027767  0 0  0 0  0 0  
   28520.25925827494 90.00204259252946  28520.25925628344 -89.99795738689281  0 0  0 0  
   2852.025752132536 90.02009112425401  0 0  2852.025752093152 -89.97990885334377  0 0  
   285.2008396587636 90.20089672213668  0 0  0 0  285.2008396486536 -89.79910325032256  
0.00588843655355589 27.00990739026593 -87.8782275872548  0 0  0 0  0 0  
   27028.38743678698 90.00209059893925  27028.38744012306 -89.99790937307272  0 0  0 0  
   2702.83856024945 90.02120048273545  0 0  2702.83856045436 -89.9787994896553  0 0  
   270.2820246862435 90.21198585755208  0 0  0 0  270.2820246887038 -89.78801411210755  
0.00621345751748076 25.59505643234254 -87.76088142483346  0 0  0 0  0 0  
   25614.55423239203 90.00220140863927  25614.55423218681 -89.99779859121146  0 0  0 0  
   2561.455230164662 90.02236631634614  0 0  2561.455229938014 -89.97763368112101  0 0  
   256.1435905383911 90.22368642319535  0 0  0 0  256.143590521856 -89.77631357470406  
0.00655641849417979 24.25410617197069 -87.63701765483124  0 0  0 0  0 0  
   24274.67751032077 90.00236440586285  24274.67750677413 -89.9976355778461  0 0  0 0  
   2427.467546871553 90.02360248737195  0 0  2427.467546590625 -89.97639749671257  0 0  
   242.7447155733206 90.2360337140714  0 0  0 0  242.7447155551112 -89.76396627170804  
0.00691830970918937 22.98318499633862 -87.50626933378308  0 0  0 0  0 0  
   23004.88865361254 90.00250436632719  23004.88865211905 -89.99749564221315  0 0  0 0  
   2300.488650338885 90.02490520218134  0 0  2300.48865026033 -89.97509481332376  0 0  
   230.0467133602176 90.24906227731533  0 0  0 0  230.0467133401527 -89.75093773199943  
0.00730017604500878 21.77862350193559 -87.36824822531823  0 0  0 0  0 0  
   21801.52143374921 90.00262314990391  21801.52143457838 -89.99737681615487  0 0  0 0  
   2180.151916145557 90.02628178195626  0 0  2180.151916410709 -89.97371818688559  0 0  
   218.012921174921 90.26280973182632  0 0  0 0  218.0129211897092 -89.73719023364629  
0.00770312005797215 20.63694391121854 -87.22254292845219  0 0  0 0  0 0  
   20661.10138604597 90.00278192544359  20661.10138444495 -89.99721808434876  0 0  0 0  
   2066.109899017883 90.02773039306578  0 0  2066.10989898656 -89.97226961681102  0 0  
   206.6085941179994 90.27731693244988  0 0  0 0  206.6085941065217 -89.72268308185925  
0.008128305161640989 19.55485001042246 -87.06871789989532  0 0  0 0  0 0  
   19580.33578569652 90.00291687764634  19580.33579029672 -89.997083136416  0 0  0 0  
   1958.033327018491 90.02926401977388  0 0  1958.033326259216 -89.9707359925816  0 0  
   195.8008045835425 90.29262408043942  0 0  0 0  195.8008046274736 -89.70737594018495  
0.00857695898590894 18.5292176661121 -86.90631139795681  0 0  0 0  0 0  
   18556.10418273531 90.00308323570906  18556.1041760403 -89.9969167592741  0 0  0 0  
   1855.610150674525 90.0308749394721  0 0  1855.610150921873 -89.96912505040231  0 0  
   185.5583475163478 90.30877651232358  0 0  0 0  185.5583475547418 -89.69122348150611  
0.00905037692151712 17.55708578823136 -86.7348337424213  0 0  0 0  0 0  
   17585.4492940603 90.00327462779677  17585.44929245895 -89.99672539089573  0 0  0 0  
   1758.544648401034 90.03257987464222  0 0  1758.544647722749 -89.96742014095018  0 0  
   175.8516500410166 90.32582052961885  0 0  0 0  175.8516500109985 -89.67417949185979  
0.009549925860214361 16.63564779899853 -86.55376560782452  0 0  0 0  0 0  
   16665.56858617154 90.00343752564828  16665.5685849861 -89.9965624796817  0 0  0 0  
   1666.556562085198 90.03437999609476  0 0  1666.556561481142 -89.96562000222318  0 0  
   166.652686029899 90.34380560646794  0 0  0 0  166.6526860280086 -89.65619439876787  
0.010077048141361 15.76224352399935 -86.36255557996809  0 0  0 0  0 0  
   15793.80609906964 90.0036196596691  15793.80609508825 -89.996380326251  0 0  0 0  
   1579.380296347574 90.03627818643641  0 0  1579.38029609788 -89.9637217957646  0 0  
   157.93489561978 90.36278339256818  0 0  0 0  157.9348955821042 -89.63721658460156  
0.0106332657163716 14.93435152789621 -86.16061792906197  0 0  0 0  0 0  
   14967.64479728438 90.0038162482722  14967.6448019138 -89.9961837561755  0 0  0 0  
   1496.764149948174 90.03827824251923  0 0  1496.764149536677 -89.96172175974535  0 0  
   149.6731078954874 90.38280888854382  0 0  0 0  149.6731079263581 -89.61719111995163  
0.0112201845430196 14.14958184456621 -85.94733017776694  0 0  0 0  0 0  
   14184.69933899851 90.00402298248754  14184.69934046695 -89.99597701906612  0 0  0 0  
   1418.46958542531 90.04039238920126  0 0  1418.469585061242 -89.95960761316871  0 0  
   141.8434689764556 90.40393993239206  0 0  0 0  141.8434689622899 -89.59606007543964  
0.011839499222293 13.40566907760464 -85.7220300217267  0 0  0 0  0 0  
   13442.70912340784 90.00427468332669  13442.70912593649 -89.99572533165822  0 0  0 0  
   1344.270544070491 90.04262349906072  0 0  1344.270544410641 -89.95737651160121  0 0  
   134.4233722575056 90.42623761539336  0 0  0 0  134.4233723022891 -89.57376239937011  
0.0124929978911873 12.70046588224459 -85.48401239119593  0 0  0 0  0 0  
   12739.53182257723 90.00448900014726  12739.53182296768 -89.99551098329873  0 0  0 0  
   1273.952793439128 90.04497414307741  0 0  1273.952793743942 -89.95502584621852  0 0  
   127.391393986346 90.44976644324485  0 0  0 0  127.3913940105025 -89.55023354209865  
0.0131825673855641 12.03193676679425 -85.23252576795251  0 0  0 0  0 0  
   12073.13715773743 90.00473842810345  12073.13715788262 -89.99526158226598  0 0  0 0  
   1207.313305940156 90.04745686862411  0 0  1207.313305800733 -89.95254313627923  0 0  
   120.7272307812875 90.47459400202341  0 0  0 0  120.7272307821471 -89.52540600464927  
0.0139101986879805 11.39815224679209 -84.96676858667213  0 0  0 0  0 0  
   11441.60106332703 90.00501500671398  11441.60106112602 -89.99498500069427  0 0  0 0  
   1144.159673064113 90.05007791465627  0 0  1144.159672938475 -89.94992205512165  0 0  
   114.4116412588877 90.50079279215271  0 0  0 0  114.4116412704328 -89.49920725861043  
0.0146779926762207 10.79728328619468 -84.68588469755218  0 0  0 0  0 0  
   10843.10011330284 90.00528070977768  10843.10011163233 -89.99471925698862  0 0  0 0  
   1084.30955522207 90.05284167655847  0 0  1084.309555017031 -89.94715832611398  0 0  
   108.4263906309832 90.52843777079595  0 0  0 0  108.4263905923949 -89.47156222669634  
0.0154881661891248 10.22759603915371 -84.38895859291013  0 0  0 0  0 0  
   10275.90626245672 90.00556382503972  10275.90626170999 -89.99443616060964  0 0  0 0  
   1027.590145236345 90.05575620736437  0 0  1027.590144920613 -89.94424376588036  0 0  
   102.7541977597515 90.55760915181918  0 0  0 0  102.7541977180521 -89.44239086769147  
0.0163430584272314 9.687446866253024 -84.07501010012975  0 0  0 0  0 0  
   9738.381863854871 90.00588654565203  9738.381866091568 -89.99411343556103  0 0  0 0  
   973.8376781998762 90.05883506582865  0 0  973.837678768061 -89.94116494150283  0 0  
   97.37868518532939 90.58839152775124  0 0  0 0  97.37868522800112 -89.41160843342369  
0.017245137706712 9.175277655542283 -83.7429881148072  0 0  0 0  0 0  
   9228.974934451797 90.00621321556292  9228.974937985598 -89.99378681941185  0 0  0 0  
   922.8969572335539 90.06208167543382  0 0  922.8969574182247 -89.93791830808586  0 0  
   92.28433269839533 90.62087341442889  0 0  0 0  92.28433272511342 -89.37912653859974  
0.0181970085860998 8.689611308935611 -83.39176376735068  0 0  0 0  0 0  
   8746.214681613456 90.00653963713548  8746.214683630971 -89.99346036830995  0 0  0 0  
   874.6209019973433 90.06550920905904  0 0  874.6209022494953 -89.93449078953982  0 0  
   87.45643115313408 90.65514946349545  0 0  0 0  87.45643119002843 -89.34485054087854  
0.019201419386388 8.229047566827735 -83.02012271635668  0 0  0 0  0 0  
   8288.707223042786 90.00690993104983  8288.707222963061 -89.99309008923765  0 0  0 0  
   828.870125304653 90.06912537806296  0 0  828.8701250560044 -89.9308746063849  0 0  
   82.88104121580625 90.69131802137774  0 0  0 0  82.88104118756618 -89.30868192876731  
0.0202612701262114 7.792258990371573 -82.62675609132219  0 0  0 0  0 0  
   7855.131606550448 90.00729102151774  7855.131606348825 -89.99270893233634  0 0  0 0  
   785.5125309072581 90.07294013680524  0 0  785.512530909269 -89.92705987412067  0 0  
   78.54495223291043 90.7294844536642  0 0  0 0  78.54495223173326 -89.2705155480061  
0.0213796208950223 7.37798722599204 -82.21025048475748  0 0  0 0  0 0  
   7444.235985759908 90.0076987857794  7444.235985584563 -89.99230125405961  0 0  0 0  
