# Hz Y RI R 1
0.001 3.947996702825455e-005 0.006283185234515595  0 0  0 0  0 0  
   3.947997556651691e-005 0.006283185236005381  5.000000786381667e-011 6.283185244430418e-006  0 0  0 0  
   3.947997555189791e-005 0.006283185232786674  0 0  3.949999998903215e-009 6.283185244762091e-005  0 0  
   3.947997549188889e-005 0.006283185236272525  0 0  0 0  3.94800311747578e-007 0.0006283185244767178  
0.00105519647889024 4.395876432125763e-005 0.006629994933638064  0 0  0 0  0 0  
   4.395876561653137e-005 0.00662999493342818  5.000000933188709e-011 6.629994946116934e-006  0 0  0 0  
   4.395876484880103e-005 0.006629994931697655  0 0  4.400000035433528e-009 6.629994946134932e-005  0 0  
   4.395876563638615e-005 0.006629994934139833  0 0  0 0  4.395503864039444e-007 0.0006629994946187794  
0.00111343960906236 4.894569077426738e-005 0.006995947305375101  0 0  0 0  0 0  
   4.8945674357674e-005 0.006995947306720326  5.000001907677312e-011 6.995947322176082e-006  0 0  0 0  
   4.89456738422953e-005 0.006995947307600899  0 0  4.900000075263723e-009 6.995947322130792e-005  0 0  
   4.894567422495887e-005 0.006995947307136909  0 0  0 0  4.894504790707677e-007 0.0006995947321963273  
0.00117489755493953 5.449833932964325e-005 0.007382098958534618  0 0  0 0  0 0  
   5.449835530867979e-005 0.007382098956934857  5.000002697178137e-011 7.382098980974825e-006  0 0  0 0  
   5.449835556347568e-005 0.007382098956706399  0 0  5.450000050204068e-009 7.382098981160434e-005  0 0  
   5.449835562965087e-005 0.007382098960358382  0 0  0 0  5.449505939392963e-007 0.0007382098980520328  
0.00123974776302894 6.068101325305481e-005 0.007789564822567422  0 0  0 0  0 0  
   6.0681002805975e-005 0.007789564823272545  4.99999801040716e-011 7.789564851057159e-006  0 0  0 0  
   6.068100244319441e-005 0.007789564823404692  0 0  6.050000055834435e-009 7.789564850946642e-005  0 0  
   6.068100228793882e-005 0.007789564821786067  0 0  0 0  6.06750736332419e-007 0.0007789564851236264  
0.00130817747426019 6.756507853897943e-005 0.008219521365490491  0 0  0 0  0 0  
   6.756509719716797e-005 0.008219521365740052  4.99999847992985e-011 8.219521403021934e-006  0 0  0 0  
   6.756509646955697e-005 0.008219521363299022  0 0  6.75000007226872e-009 8.219521403021377e-005  0 0  
   6.756509685545307e-005 0.008219521364172918  0 0  0 0  6.756009128725771e-007 0.0008219521402961452  
0.00138038426460288 7.52302170437507e-005 0.008673209993935289  0 0  0 0  0 0  
   7.523023135599026e-005 0.00867320999142741  9.999998466905126e-011 8.67321004331558e-006  0 0  0 0  
   7.523023062352333e-005 0.008673209992904187  0 0  7.500000148643982e-009 8.673210043029435e-005  0 0  
   7.523023066128038e-005 0.008673209996115101  0 0  0 0  7.522511317630756e-007 0.0008673210043207021  
0.00145657661552446 8.376503022281387e-005 0.009151940632241725  0 0  0 0  0 0  
   8.376503370177331e-005 0.009151940636276321  9.999999025897056e-011 9.151940700883757e-006  0 0  0 0  
   8.376503399044155e-005 0.009151940635169206  0 0  8.400000130878633e-009 9.151940699999918e-005  0 0  
   8.376503342645065e-005 0.009151940632418832  0 0  0 0  8.376014031445461e-007 0.0009151940698874582  
0.00153697451593527 9.326819385618328e-005 0.009657095512496423  0 0  0 0  0 0  
   9.32681924040953e-005 0.009657095514310252  1.000000241910062e-010 9.657095596209897e-006  0 0  0 0  
   9.326819289456259e-005 0.009657095518202373  0 0  9.350000180778498e-009 9.657095599750283e-005  0 0  
   9.326819201873772e-005 0.009657095515917955  0 0  0 0  9.326017394846195e-007 0.0009657095595986174  
0.00162181009735893 0.0001038496138845642 0.01019013316037198  0 0  0 0  0 0  
   0.0001038495977736917 0.01019013316333677  1.000000187013683e-010 1.019013326953512e-005  0 0  0 0  
   0.0001038495987612274 0.01019013316564673  0 0  1.040000016202052e-008 0.0001019013326954687  0 0  
   0.0001038495994619092 0.0101901331622051  0 0  0 0  1.038402156534997e-006 0.001019013327070872  
0.00171132830416178 0.0001156316336195783 0.01075259260186691  0 0  0 0  0 0  
   0.0001156316181500467 0.01075259260535577  9.999999464393463e-011 1.07525927521952e-005  0 0  0 0  
   0.0001156316193555571 0.01075259260497676  0 0  1.155000026013931e-008 0.0001075259274958743  0 0  
   0.000115631619045641 0.01075259260460848  0 0  0 0  1.156202673577943e-006 0.001075259275059313  
0.00180578760077672 0.0001287504927135641 0.01134609781965295  0 0  0 0  0 0  
   0.00012875051330333 0.01134609781903362  1.49999984829699e-010 1.134609801197421e-005  0 0  0 0  
   0.0001287505129908193 0.01134609782040619  0 0  1.28500003531773e-008 0.0001134609800781505  0 0  
   0.0001287505117343028 0.01134609781832151  0 0  0 0  1.287353314514095e-006 0.001134609801075582  
0.00190546071796325 0.0001433580383251427 0.01197236241979575  0 0  0 0  0 0  
   0.0001433580145025057 0.01197236241912707  1.499999977424778e-010 1.197236266549351e-005  0 0  0 0  
   0.0001433580139717744 0.01197236241905078  0 0  1.435000045037577e-008 0.0001197236266976454  0 0  
   0.0001433580127796787 0.01197236241881021  0 0  0 0  1.433354109030392e-006 0.00119723626692325  
0.00201063544025849 0.0001596230887332528 0.01263319461116384  0 0  0 0  0 0  
   0.0001596230845151575 0.01263319460715555  1.500000113901523e-010 1.263319492622027e-005  0 0  0 0  
   0.0001596230848138457 0.01263319460651154  0 0  1.595000052177268e-008 0.0001263319493166927  0 0  
   0.0001596230862106011 0.01263319460746379  0 0  0 0  1.595955094140106e-006 0.001263319492675119  
0.00212161543689268 0.0001777339006162527 0.01333050238531744  0 0  0 0  0 0  
   0.0001777338840232813 0.01333050238824422  2.000000089990353e-010 1.333050280554867e-005  0 0  0 0  
   0.0001777338830959067 0.01333050238440177  0 0  1.775000066418226e-008 0.0001333050280518127  0 0  
   0.0001777338834241963 0.01333050238566038  0 0  0 0  1.777006315491305e-006 0.001333050280329726  
0.00223872113856834 0.0001978999400381138 0.01406629907291474  0 0  0 0  0 0  
   0.0001978999348153672 0.01406629907200406  2.000000148332053e-010 1.40662996280404e-005  0 0  0 0  
   0.0001978999333399922 0.0140662990754107  0 0  1.980000075294351e-008 0.0001406629962389187  0 0  
   0.0001978999328539163 0.01406629907194676  0 0  0 0  1.978607829768187e-006 0.001406629962785192  
0.00236229066263446 0.0002203545587983899 0.01484270911252738  0 0  0 0  0 0  
   0.0002203545702834905 0.01484270911221235  2.000000327129589e-010 1.484270983464452e-005  0 0  0 0  
   0.000220354569930808 0.01484270911328613  0 0  2.205000095327054e-008 0.0001484270983783273  0 0  
   0.0002203545707060388 0.01484270911566337  0 0  0 0  2.203059706879875e-006 0.00148427098336821  
0.00249268078932718 0.0002453576269265119 0.01566197420845593  0 0  0 0  0 0  
   0.0002453576368089882 0.01566197421370559  2.500000043358874e-010 1.566197515243647e-005  0 0  0 0  
   0.0002453576353466732 0.01566197421434604  0 0  2.455000119734972e-008 0.0001566197515704423  0 0  
   0.0002453576370507232 0.01566197421090668  0 0  0 0  2.452962034024158e-006 0.001566197515519542  
0.00263026799189538 0.0002731985229808302 0.01652645980136732  0 0  0 0  0 0  
   0.0002731985120364892 0.01652645980265778  2.500000190649632e-010 1.652646103488307e-005  0 0  0 0  
   0.0002731985097729097 0.01652645980298474  0 0  2.73000014588889e-008 0.0001652646103548454  0 0  
   0.0002731985104906562 0.01652645980445777  0 0  0 0  2.731264919458621e-006 0.001652646103439815  
0.00277544952358571 0.0003041994840087176 0.01743866188071882  0 0  0 0  0 0  
   0.0003041994661982704 0.01743866188206776  3.000000026279885e-010 1.743866349480673e-005  0 0  0 0  
   0.0003041994643340261 0.01743866187927229  0 0  3.040000187345057e-008 0.0001743866349528003  0 0  
   0.0003041994646383912 0.0174386618778312  0 0  0 0  3.041068496072505e-006 0.001743866349005802  
0.00292864456462524 0.0003387194175498855 0.0184012142033279  0 0  0 0  0 0  
   0.0003387194153330724 0.01840121420454505  3.49999967603269e-010 1.840121631259538e-005  0 0  0 0  
   0.0003387194160245857 0.01840121420408129  0 0  3.38500023187535e-008 0.0001840121631749689  0 0  
   0.0003387194136518181 0.01840121420433889  0 0  0 0  3.386072930733183e-006 0.001840121630997873  
0.00309029543251359 0.0003771580784508915 0.01941689590444886  0 0  0 0  0 0  
   0.000377158095635091 0.01941689590178092  3.999999986347808e-010 1.941689866329147e-005  0 0  0 0  
   0.0003771580934416454 0.01941689590302901  0 0  3.770000282944721e-008 0.000194168986605212  0 0  
   0.0003771580959971876 0.01941689590074895  0 0  0 0  3.770178428208717e-006 0.001941689866241906  
0.00326086885911893 0.0004199607140710073 0.02048863948835667  0 0  0 0  0 0  
   0.0004199607136909998 0.0204886394862382  3.999999672361228e-010 2.048864310147355e-005  0 0  0 0  
   0.0004199607157669232 0.02048863948872933  0 0  4.200000352816365e-008 0.0002048864309732106  0 0  
   0.0004199607144391031 0.02048863948660615  0 0  0 0  4.197885244038234e-006 0.002048864310052278  
0.00344085733826513 0.0004676231321387103 0.02161953933460847  0 0  0 0  0 0  
   0.0004676231520898047 0.02161953932920672  4.499999682686702e-010 2.161954405228326e-005  0 0  0 0  
   0.0004676231532728741 0.02161953932966637  0 0  4.675000434233883e-008 0.0002161954405413817  0 0  
   0.0004676231512112788 0.02161953932943489  0 0  0 0  4.674093693666775e-006 0.002161954405580749  
0.00363078054770101 0.0005206977473616297 0.02281286057766926  0 0  0 0  0 0  
   0.0005206977351155227 0.02281286057944474  4.999999653912934e-010 2.28128667649648e-005  0 0  0 0  
   0.0005206977359945045 0.02281286058219866  0 0  5.205000540840757e-008 0.0002281286676405581  0 0  
   0.0005206977349575699 0.02281286057995068  0 0  0 0  5.204304168809519e-006 0.002281286675968939  
0.00383118684955729 0.0005797997123177609 0.02407204859403961  0 0  0 0  0 0  
   0.0005797996919492533 0.02407204859429351  6.000000041032222e-010 2.407205668528318e-005  0 0  0 0  
   0.0005797996901780149 0.02407204859413892  0 0  5.795000676434698e-008 0.0002407205668308414  0 0  
   0.0005797996909455365 0.02407204859341254  0 0  0 0  5.794667155364935e-006 0.002407205668038617  
0.00404265487362344 0.0006456143425019442 0.02540073886946421  0 0  0 0  0 0  
   0.0006456143518341315 0.02540073887136279  6.499999895145519e-010 2.540074944753473e-005  0 0  0 0  
   0.0006456143515643594 0.02540073886786556  0 0  6.450000835146398e-008 0.0002540074944730352  0 0  
   0.0006456143534335668 0.02540073886913946  0 0  0 0  6.452033256061924e-006 0.002540074944910604  
0.00426579518801593 0.0007189051950685669 0.02680276753533711  0 0  0 0  0 0  
   0.0007189051736214295 0.02680276753974052  6.999999855942824e-010 2.680278138142963e-005  0 0  0 0  
   0.0007189051713241109 0.02680276753787781  0 0  7.185001034462643e-008 0.0002680278137979354  0 0  
   0.0007189051745275058 0.02680276753908938  0 0  0 0  7.183953216393406e-006 0.002680278138034726  
0.00450125206206134 0.0008005226633884305 0.02828218242849408  0 0  0 0  0 0  
   0.0008005226775425969 0.02828218242553746  8.000000289960092e-010 2.828220053384665e-005  0 0  0 0  
   0.0008005226801635515 0.02828218242754262  0 0  8.000001278757671e-008 0.0002828220053862228  0 0  
   0.0008005226807523593 0.02828218242823808  0 0  0 0  7.998877961651927e-006 0.002828220053406956  
0.00474970532648456 0.0008914144559907695 0.02984325473117987  0 0  0 0  0 0  
   0.000891414471652046 0.02984325472931974  8.999999993141919e-010 2.984327842362635e-005  0 0  0 0  
   0.0008914144699862994 0.02984325472720225  0 0  8.905001587332658e-008 0.0002984327841934373  0 0  
   0.000891414473989485 0.02984325473131723  0 0  0 0  8.906308640996615e-006 0.002984327841587461  
0.00501187233627272 0.0009926363761752341 0.03149049131139663  0 0  0 0  0 0  
   0.0009926363700720287 0.03149049131396894  1.000000018705102e-009 3.149052231123648e-005  0 0  0 0  
   0.0009926363678739777 0.0314904913110031  0 0  9.915001965201289e-008 0.0003149052231200497  0 0  
   0.0009926363685689582 0.03149049131275052  0 0  0 0  9.916646674702731e-006 0.003149052230663714  
0.00528851004188238 0.001105364879513399 0.03322864770282414  0 0  0 0  0 0  
   0.001105364857021131 0.03322864770386762  1.099999981713891e-009 3.322868826256227e-005  0 0  0 0  
   0.001105364857340423 0.03322864770586899  0 0  1.104000243661734e-007 0.0003322868826030532  0 0  
   0.001105364861013736 0.03322864770452637  0 0  0 0  1.104159382669824e-005 0.003322868825669063  
0.00558041717476996 0.001230910988462695 0.03506274178867612  0 0  0 0  0 0  
   0.001230911001141408 0.0350627417906824  1.249999999548862e-009 3.506279484974221e-005  0 0  0 0  
   0.001230911002188966 0.03506274178867903  0 0  1.229500302403535e-007 0.0003506279484980233  0 0  
   0.001230911005360191 0.03506274178932737  0 0  0 0  1.229415228300193e-005 0.003506279484079449  
0.00588843655355589 0.00137073595235759 0.03699806824838037  0 0  0 0  0 0  
   0.001370735970261351 0.03699806824314414  1.350000009609235e-009 3.69981376635819e-005  0 0  0 0  
   0.001370735970082014 0.03699806824491491  0 0  1.369000374600473e-007 0.0003699813766808824  0 0  
   0.00137073597193705 0.03699806824731775  0 0  0 0  1.368882475481795e-005 0.003699813765670146  
0.00621345751748076 0.001526468397665061 0.03904021375987404  0 0  0 0  0 0  
   0.001526468397779006 0.03904021376018285  1.500000007206815e-009 3.904030459391319e-005  0 0  0 0  
   0.001526468399525977 0.03904021376326098  0 0  1.524000464706825e-007 0.00039040304594019  0 0  
   0.001526468399194903 0.03904021376233827  0 0  0 0  1.524166459929963e-005 0.003904030458509951  
0.00655641849417979 0.00169992377808686 0.04119507309429033  0 0  0 0  0 0  
   0.00169992379004833 0.04119507309982576  1.699999988448912e-009 4.119519193898488e-005  0 0  0 0  
   0.001699923789726666 0.04119507309858558  0 0  1.697000575790811e-007 0.0004119519194218039  0 0  
   0.001699923788438822 0.04119507309695863  0 0  0 0  1.697072598665067e-005 0.004119519192475158  
0.00691830970918937 0.001893126245950086 0.04346886598250717  0 0  0 0  0 0  
   0.001893126239593653 0.04346886598561137  1.900000025015017e-009 4.346902148351133e-005  0 0  0 0  
   0.001893126234251405 0.04346886598450384  0 0  1.889500713627542e-007 0.000434690214800482  0 0  
   0.001893126239048339 0.04346886598660636  0 0  0 0  1.889591407742308e-005 0.00434690214643642  
0.00730017604500878 0.002108332680450821 0.04586815495312128  0 0  0 0  0 0  
   0.002108332707542295 0.04586815495012786  2.099999997896054e-009 4.58683584057531e-005  0 0  0 0  
   0.00210833270513808 0.04586815494639623  0 0  2.104000884991635e-007 0.0004586835840511482  0 0  
   0.002108332707948724 0.04586815494873944  0 0  0 0  2.103948527379594e-005 0.004586835838698128  
0.00770312005797215 0.002348060237597984 0.04839986405882788  0 0  0 0  0 0  
   0.002348060229507991 0.04839986406297968  2.349999968757878e-009 4.840013028415519e-005  0 0  0 0  
   0.002348060229290287 0.0483998640599664  0 0  2.342501097495819e-007 0.000484001302819878  0 0  
   0.00234806022564098 0.04839986406210303  0 0  0 0  2.342629751801632e-005 0.004840013026059107  
0.008128305161640989 0.002615116399549833 0.05107129869502537  0 0  0 0  0 0  
   0.002615116386400813 0.05107129868366854  2.600000015102726e-009 5.107164705519024e-005  0 0  0 0  
   0.002615116389550719 0.05107129871539343  0 0  2.60850136064076e-007 0.0005107164705291432  0 0  
   0.002615116380579307 0.05107129868450803  0 0  0 0  2.608381064167721e-005 0.005107164701966849  
0.00857695898590894 0.002912633449897756 0.05389016629279128  0 0  0 0  0 0  
   0.002912633455667286 0.05389016631197972  2.900000008741567e-009 5.389062214057301e-005  0 0  0 0  
   0.002912633459033245 0.05389016628509312  0 0  2.904001686560083e-007 0.0005389062213919325  0 0  
   0.002912633455098648 0.05389016628132717  0 0  0 0  2.904283685023317e-005 0.005389062209557551  
0.00905037692151712 0.003244106776288878 0.05686459820141769  0 0  0 0  0 0  
   0.003244106758032462 0.0568645982076542  3.250000020116428e-009 5.686519472639274e-005  0 0  0 0  
   0.003244106762065105 0.05686459822423368  0 0  3.233502091338261e-007 0.0005686519472947769  0 0  
   0.003244106755525651 0.05686459821234067  0 0  0 0  3.233754126433327e-005 0.005686519467063053  
0.009549925860214361 0.003613437656272275 0.06000317259412226  0 0  0 0  0 0  
   0.003613437650947472 0.0600031725987265  3.600000043003989e-009 6.000395324652352e-005  0 0  0 0  
   0.003613437659343553 0.06000317261576477  0 0  3.600502592559998e-007 0.0006000395324625321  0 0  
   0.003613437650830065 0.06000317259513311  0 0  0 0  3.600604263671943e-005 0.006000395317045422  
0.010077048141361 0.004024981900857204 0.0633149385361676  0 0  0 0  0 0  
   0.0040249819174309 0.0633149385511393  4.000000021888958e-009 6.331596019248572e-005  0 0  0 0  
   0.004024981921162399 0.06331493854492711  0 0  4.009003213953504e-007 0.0006331596019121832  0 0  
   0.004024981927046063 0.06331493854966772  0 0  0 0  4.009071420865857e-005 0.006331596008322728  
0.0106332657163716 0.004483604140152583 0.06680944114478675  0 0  0 0  0 0  
   0.004483604133579611 0.06680944112447093  4.450000025298929e-009 6.681077824975886e-005  0 0  0 0  
   0.004483604138744658 0.06680944116333154  0 0  4.463503985062054e-007 0.0006681077824740993  0 0  
   0.004483604129321745 0.06680944113167187  0 0  0 0  4.463878479792555e-005 0.006681077811618634  
0.0112201845430196 0.004994738887450455 0.07049674790901528  0 0  0 0  0 0  
   0.004994738885021771 0.0704967479018527  4.950000088004493e-009 7.049849796125882e-005  0 0  0 0  
   0.004994738885816406 0.07049674792731579  0 0  4.970004940354272e-007 0.000704984979609792  0 0  
   0.00499473887831314 0.07049674791673836  0 0  0 0  4.970284013138624e-005 0.007049849778723701  
0.011839499222293 0.005564459838167024 0.07438747615598043  0 0  0 0  0 0  
   0.005564459817665317 0.07438747614344306  5.550000094969132e-009 7.438976681325982e-005  0 0  0 0  
   0.005564459822916566 0.07438747613819313  0 0  5.534006124893287e-007 0.000743897668106531  0 0  
   0.005564459817145716 0.07438747613263182  0 0  0 0  5.534142449988361e-005 0.007438976658479699  
0.0124929978911873 0.006199557530945392 0.07849282154064791  0 0  0 0  0 0  
   0.006199557553433682 0.07849282153645101  6.150000064586521e-009 7.849582000556088e-005  0 0  0 0  
   0.006199557544126187 0.07849282152070899  0 0  6.161507593007965e-007 0.0007849582000524783  0 0  
   0.006199557549848596 0.0784928215241779  0 0  0 0  6.16197428152121e-005 0.007849581970718994  
0.0131825673855641 0.006907627648627268 0.08282458762706865  0 0  0 0  0 0  
   0.006907627633554565 0.08282458762732278  6.850000096729475e-009 8.282851287971725e-005  0 0  0 0  
   0.006907627642336886 0.08282458763722456  0 0  6.860509413024028e-007 0.0008282851287836402  0 0  
   0.006907627638932322 0.08282458762728341  0 0  0 0  6.861031313684516e-005 0.008282851248936194  
0.0139101986879805 0.007697170266545252 0.08739521624627523  0 0  0 0  0 0  
   0.007697170256725916 0.08739521626408257  7.65000014341173e-009 8.740035514496325e-005  0 0  0 0  
   0.007697170313489253 0.08739521625181185  0 0  7.63901167075732e-007 0.0008740035518573367  0 0  
   0.007697170188337823 0.08739521624427592  0 0  0 0  7.639406987802274e-005 0.008740035464266964  
0.0146779926762207 0.008577703060275584 0.09221781862126204  0 0  0 0  0 0  
   0.008577703115086873 0.0922178186304939  8.500000131043162e-009 9.222454698909356e-005  0 0  0 0  
   0.008577703057596281 0.09221781863910013  0 0  8.505514468340021e-007 0.0009222454695619372  0 0  
   0.008577703067364538 0.0922178186537064  0 0  0 0  8.506091764178134e-005 0.00922245463643127  
0.0154881661891248 0.009559889416529292 0.09730620691297123  0 0  0 0  0 0  
   0.009559889441595908 0.09730620691764781  9.450000203218696e-009 9.731501726628993e-005  0 0  0 0  
   0.00955988946490546 0.09730620693840485  0 0  9.470017935860485e-007 0.0009731501722278845  0 0  
