!User: Nokia Research Center 
!FILEFORMAT: MDS
!TITLE: nport
!DATE: Wed Mar 05 2003 at 12:51:46
# Hz S MA R 1
0.001 0.9999210463 -0.7199905182 0 0 0 0 0 0
 0.01256587441 -90.72035052 0.9999999999 -0.0007199999928 0 0 0 0
 0.01256587433 -90.72359052 0 0 0.9999999921 -0.007199999919 0 0
 0.01256586697 -90.7559905 0 0 0 0 0.9999992104 -0.07199998981
0.00105519647889024 0.9999120902 -0.7597303256 0 0 0 0 0 0
 0.01325940705 -90.7601102 0.9999999999 -0.0007597414572 0 0 0 0
 0.01325940696 -90.76352903 0 0 0.9999999912 -0.007597414561 0 0
 0.01325939831 -90.79771738 0 0 0 0 0.9999991209 -0.07597413459
0.00111343960906236 0.9999021182 -0.801663432 0 0 0 0 0 0
 0.01399120987 -90.80206427 0.9999999999 -0.0008016765105 0 0 0 0
 0.01399120977 -90.80567181 0 0 0.9999999902 -0.008016765092 0 0
 0.0139911996 -90.84174723 0 0 0 0 0.9999990211 -0.08016763797
0.00117489755493953 0.9998910152 -0.8459108652 0 0 0 0 0 0
 0.01476339342 -90.84633383 0.9999999999 -0.0008459262311 0 0 0 0
 0.0147633933 -90.8501405 0 0 0.9999999891 -0.008459262296 0 0
 0.01476338136 -90.88820715 0 0 0 0 0.9999989101 -0.08459260774
0.00123974776302894 0.9998786527 -0.8926003272 0 0 0 0 0 0
 0.01557818446 -90.89304664 0.9999999999 -0.0008926183804 0 0 0 0
 0.01557818432 -90.89706342 0 0 0.9999999879 -0.008926183786 0 0
 0.01557817028 -90.93723121 0 0 0 0 0.9999987865 -0.08926181999
0.00130817747426019 0.9998648881 -0.9418665614 0 0 0 0 0 0
 0.01643793225 -90.94233751 0.9999999999 -0.000941887772 0 0 0 0
 0.01643793208 -90.946576 0 0 0.9999999865 -0.009418877699 0 0
 0.01643791559 -90.98896091 0 0 0 0 0.9999986488 -0.09418875599
0.00138038426460288 0.9998495622 -0.9938517404 0 0 0 0 0 0
 0.0173451153 -90.99434868 0.9999999998 -0.0009938766606 0 0 0 0
 0.01734511511 -90.99882112 0 0 0.999999985 -0.009938766581 0 0
 0.01734509574 -91.04354552 0 0 0 0 0.9999984955 -0.09938764114
0.00145657661552446 0.999832498 -1.048705874 0 0 0 0 0 0
 0.01830234843 -91.04923024 0.9999999998 -0.001048735153 0 0 0 0
 0.0183023482 -91.05394955 0 0 0.9999999832 -0.0104873515 0 0
 0.01830232543 -91.10114257 0 0 0 0 0.9999983248 -0.104873486
0.00153697451593527 0.9998134984 -1.106587241 0 0 0 0 0 0
 0.01931239013 -91.10714055 0.9999999998 -0.00110662164 0 0 0 0
 0.01931238987 -91.11212035 0 0 0.9999999813 -0.01106621637 0 0
 0.01931236312 -91.16191825 0 0 0 0 0.9999981348 -0.1106621296
0.00162181009735893 0.9997923439 -1.167662843 0 0 0 0 0 0
 0.0203781505 -91.16824669 0.9999999998 -0.001167703258 0 0 0 0
 0.02037815019 -91.17350136 0 0 0.9999999792 -0.01167703254 0 0
 0.02037811876 -91.22604793 0 0 0 0 0.9999979232 -0.1167702854
0.00171132830416178 0.9997687902 -1.232108883 0 0 0 0 0 0
 0.02150269939 -91.23272496 0.9999999998 -0.001232156367 0 0 0 0
 0.02150269902 -91.23826967 0 0 0.9999999769 -0.01232156362 0 0
 0.0215026621 -91.29371661 0 0 0 0 0.9999976876 -0.1232155892
0.00180578760077672 0.9997425653 -1.300111272 0 0 0 0 0 0
 0.02268927513 -91.30076136 0.9999999997 -0.00130016706 0 0 0 0
 0.0226892747 -91.30661211 0 0 0.9999999743 -0.01300167054 0 0
 0.02268923132 -91.36511951 0 0 0 0 0.9999974253 -0.1300166502
0.00190546071796325 0.9997133661 -1.371866159 0 0 0 0 0 0
 0.02394129364 -91.37255213 0.9999999997 -0.001371931703 0 0 0 0
 0.02394129313 -91.37872582 0 0 0.9999999713 -0.01371931697 0 0
 0.02394124217 -91.44046261 0 0 0 0 0.9999971333 -0.1371931048
0.00201063544025849 0.9996808557 -1.447580496 0 0 0 0 0 0
 0.02526235804 -91.44830432 0.9999999997 -0.001447657502 0 0 0 0
 0.02526235744 -91.45481878 0 0 0.9999999681 -0.01447657495 0 0
 0.02526229757 -91.51996322 0 0 0 0 0.9999968081 -0.1447656732
0.00212161543689268 0.9996446585 -1.527472625 0 0 0 0 0 0
 0.02665626873 -91.52823641 0.9999999996 -0.001527563099 0 0 0 0
 0.02665626802 -91.53511044 0 0 0.9999999645 -0.0152756309 0 0
 0.02665619768 -91.6038506 0 0 0 0 0.999996446 -0.1527562194
0.00223872113856834 0.9996043567 -1.611772907 0 0 0 0 0 0
 0.028127034 -91.61257885 0.9999999996 -0.001611879204 0 0 0 0
 0.02812703318 -91.6198323 0 0 0.9999999604 -0.01611879193 0 0
 0.02812695053 -91.69236665 0 0 0 0 0.9999960428 -0.1611878141
0.00236229066263446 0.999559485 -1.700724374 0 0 0 0 0 0
 0.02967888122 -91.7015748 0.9999999996 -0.00170084926 0 0 0 0
 0.02967888025 -91.70922862 0 0 0.9999999559 -0.01700849248 0 0
 0.02967878316 -91.78576659 0 0 0 0 0.9999955939 -0.1700848011
0.00249268078932718 0.9995095254 -1.794583424 0 0 0 0 0 0
 0.0313162685 -91.79548079 0.9999999995 -0.00179473015 0 0 0 0
 0.03131626736 -91.80355707 0 0 0.9999999509 -0.01794730136 0 0
 0.03131615328 -91.88431964 0 0 0 0 0.9999950941 -0.1794728683
0.00263026799189538 0.9994539013 -1.89362055 0 0 0 0 0 0
 0.03304389698 -91.89456745 0.9999999995 -0.001893792935 0 0 0 0
 0.03304389564 -91.90308951 0 0 0.9999999454 -0.01893792918 0 0
 0.03304376162 -91.98830985 0 0 0 0 0.9999945375 -0.1893791211
0.00277544952358571 0.9993919709 -1.998121106 0 0 0 0 0 0
 0.03486672376 -91.99912027 0.9999999994 -0.001998323637 0 0 0 0
 0.03486672218 -92.00811272 0 0 0.9999999392 -0.01998323617 0 0
 0.03486656472 -92.09803688 0 0 0 0 0.9999939179 -0.1998321611
0.00292864456462524 0.9993230197 -2.108386117 0 0 0 0 0 0
 0.03678997535 -92.10944043 0.9999999993 -0.002108624065 0 0 0 0
 0.0367899735 -92.11892924 0 0 0.9999999323 -0.02108624042 0 0
 0.03678978851 -92.21381684 0 0 0 0 0.9999932279 -0.2108621685
0.00309029543251359 0.9992462523 -2.224733131 0 0 0 0 0 0
 0.03881916186 -92.22584564 0.9999999992 -0.002225012689 0 0 0 0
 0.03881915969 -92.23585819 0 0 0.9999999246 -0.02225012661 0 0
 0.03881894235 -92.33598321 0 0 0 0 0.9999924597 -0.2225009893
0.00326086885911893 0.9991607833 -2.347497111 0 0 0 0 0 0
 0.04096009176 -92.34867102 0.9999999992 -0.002347825555 0 0 0 0
 0.04096008921 -92.35923624 0 0 0.999999916 -0.02347825522 0 0
 0.04095983387 -92.46488773 0 0 0 0 0.9999916043 -0.234782227
0.00344085733826513 0.9990656274 -2.477031382 0 0 0 0 0 0
 0.04321888737 -92.47827009 0.9999999991 -0.002477417258 0 0 0 0
 0.04321888437 -92.48941847 0 0 0.9999999065 -0.0247741722 0 0
 0.04321858439 -92.60090147 0 0 0 0 0.9999906519 -0.2477413399
0.00363078054770101 0.9989596876 -2.613708616 0 0 0 0 0 0
 0.04560200098 -92.6150157 0.999999999 -0.002614161968 0 0 0 0
 0.04560199746 -92.62677943 0 0 0.9999998959 -0.02614161923 0 0
 0.04560164503 -92.74441581 0 0 0 0 0.9999895915 -0.2614157433
0.00383118684955729 0.9988417433 -2.757921881 0 0 0 0 0 0
 0.0481162317 -92.75930111 0.9999999988 -0.002758454504 0 0 0 0
 0.04811622756 -92.77171415 0 0 0.9999998841 -0.02758454451 0 0
 0.04811581352 -92.89584354 0 0 0 0 0.9999884108 -0.2758449176
0.00404265487362344 0.9987104359 -2.910085727 0 0 0 0 0 0
 0.05076874296 -92.91154108 0.9999999987 -0.002910711479 0 0 0 0
 0.05076873809 -92.92463928 0 0 0.999999871 -0.02910711417 0 0
 0.05076825167 -93.05562005 0 0 0 0 0.9999870961 -0.291070522
0.00426579518801593 0.9985642532 -3.070637341 0 0 0 0 0 0
 0.0535670807 -93.07217303 0.9999999986 -0.003071372504 0 0 0 0
 0.05356707498 -93.0859942 0 0 0.9999998563 -0.03071372431 0 0
 0.05356650353 -93.2242045 0 0 0 0 0.9999856323 -0.307136515
0.00450125206206134 0.9984015129 -3.240037753 0 0 0 0 0 0
 0.05651919227 -93.2416582 0.9999999984 -0.003240901451 0 0 0 0
 0.05651918556 -93.25624226 0 0 0.99999984 -0.03240901366 0 0
 0.05651851422 -93.4020811 0 0 0 0 0.9999840025 -0.3240892811
0.00474970532648456 0.9982203425 -3.418773098 0 0 0 0 0 0
 0.05963344595 -93.42048299 0.9999999982 -0.0034197878 0 0 0 0
 0.05963343806 -93.43587203 0 0 0.9999998219 -0.03419787699 0 0
 0.05963264938 -93.58976046 0 0 0 0 0.9999821877 -0.3419777648
0.00501187233627272 0.9980186588 -3.607355946 0 0 0 0 0 0
 0.06291865106 -93.60916022 0.999999998 -0.003608548045 0 0 0 0
 0.06291864179 -93.62539868 0 0 0.9999998017 -0.03608547927 0 0
 0.06291771526 -93.78778096 0 0 0 0 0.9999801671 -0.3608536118
0.00528851004188238 0.9977941441 -3.806326691 0 0 0 0 0 0
 0.06638407871 -93.80823055 0.9999999978 -0.003807727191 0 0 0 0
 0.06638406783 -93.82536532 0 0 0.9999997792 -0.03807727052 0 0
 0.06638297937 -93.99671025 0 0 0 0 0.9999779173 -0.3807713178
0.00558041717476996 0.99754422 -4.016255004 0 0 0 0 0 0
 0.07003948306 -94.01826395 0.9999999975 -0.004017900324 0 0 0 0
 0.07003947027 -94.0363445 0 0 0.9999997541 -0.04017900161 0 0
 0.07003819161 -94.21714673 0 0 0 0 0.9999754123 -0.401788386
0.00588843655355589 0.9972660181 -4.237741354 0 0 0 0 0 0
 0.07389512294 -94.23986119 0.9999999973 -0.004239674274 0 0 0 0
 0.07389510792 -94.25893972 0 0 0.9999997262 -0.04239674083 0 0
 0.07389360584 -94.4497212 0 0 0 0 0.9999726231 -0.4239654931
0.00621345751748076 0.9969563482 -4.471418593 0 0 0 0 0 0
 0.07796178391 -94.47365544 0.999999997 -0.004473689366 0 0 0 0
 0.07796176627 -94.49378704 0 0 0.9999996952 -0.04473689141 0 0
 0.07796000175 -94.69509852 0 0 0 0 0.9999695176 -0.447366664
0.00655641849417979 0.9966116625 -4.717953617 0 0 0 0 0 0
 0.08225080046 -94.72031393 0.9999999966 -0.004720621266 0 0 0 0
 0.08225077973 -94.74155672 0 0 0.9999996606 -0.04720621002 0 0
 0.08224870696 -94.95397934 0 0 0 0 0.9999660597 -0.4720594565
0.00691830970918937 0.9962280157 -4.978049085 0 0 0 0 0 0
 0.08677407825 -94.98053968 0.9999999962 -0.004981182938 0 0 0 0
 0.0867740539 -95.00295499 0 0 0.9999996221 -0.04981182627 0 0
 0.08677161909 -95.22710196 0 0 0 0 0.9999622096 -0.4981151567
0.00730017604500878 0.9958010217 -5.252445214 0 0 0 0 0 0
 0.09154411629 -95.25507328 0.9999999958 -0.005256126696 0 0 0 0
 0.09154408768 -95.27872584 0 0 0.9999995792 -0.05256126331 0 0
 0.09154122765 -95.51524418 0 0 0 0 0.9999579228 -0.5256089839
0.00770312005797215 0.9953258044 -5.541921635 0 0 0 0 0 0
 0.09657402856 -95.54469476 0.9999999953 -0.005546246382 0 0 0 0
 0.09657399496 -95.56965286 0 0 0.9999995315 -0.05546245953 0 0
 0.09657063552 -95.81922529 0 0 0 0 0.9999531496 -0.5546203079
0.00812830516164099 0.9947969449 -5.847299327 0 0 0 0 0 0
 0.1018775651 -95.85022552 0.9999999948 -0.005852379653 0 0 0 0
 0.1018775257 -95.87656122 0 0 0.9999994783 -0.05852379149 0 0
 0.1018735797 -96.13990813 0 0 0 0 0.9999478351 -0.5852328776
0.00857695898590894 0.9942084216 -6.169442597 0 0 0 0 0 0
 0.1074691321 -96.1725303 0.9999999942 -0.006175410402 0 0 0 0
 0.1074690857 -96.20031964 0 0 0.9999994192 -0.0617540981 0 0
 0.107464451 -96.47820116 0 0 0 0 0.9999419177 -0.6175350627
0.00905037692151712 0.9935535448 -6.509261134 0 0 0 0 0 0
 0.11336381 -96.51251927 0.9999999935 -0.006516271311 0 0 0 0
 0.1133637556 -96.54184248 0 0 0.9999993533 -0.06516270616 0 0
 0.1133583121 -96.83506065 0 0 0 0 0.9999353291 -0.6516201082
0.00954992586021436 0.992824885 -6.867712109 0 0 0 0 0 0
 0.1195773706 -96.87115008 0.9999999928 -0.006875946542 0 0 0 0
 0.1195773067 -96.90209183 0 0 0.9999992799 -0.06875945725 0 0
 0.1195709135 -97.21149293 0 0 0 0 0.9999279931 -0.687586403
0.010077048141361 0.9920141928 -7.245802327 0 0 0 0 0 0
 0.1261262906 -97.24943006 0.999999992 -0.00725547458 0 0 0 0
 0.1261262155 -97.28207968 0 0 0.9999991982 -0.0725547362 0 0
 0.1261187073 -97.60855667 0 0 0 0 0.999919825 -0.7255377636
0.0106332657163716 0.9911123116 -7.644590412 0 0 0 0 0 0
 0.1330277622 -97.64841839 0.9999999911 -0.007655951228 0 0 0 0
 0.1330276741 -97.68287015 0 0 0.9999991073 -0.076559501 0 0
 0.1330188567 -98.02736519 0 0 0 0 0.9999107304 -0.765583733
0.0112201845430196 0.9901090818 -8.065189021 0 0 0 0 0 0
 0.1402997 -98.06922829 0.9999999901 -0.008078532777 0 0 0 0
 0.1402995965 -98.10558166 0 0 0.999999006 -0.08078531452 0 0
 0.1402892423 -98.46908889 0 0 0 0 0.9999006042 -0.8078398959
0.011839499222293 0.9889932348 -8.508767073 0 0 0 0 0 0
 0.1479607417 -98.51302929 0.9999999889 -0.008524439339 0 0 0 0
 0.1479606201 -98.55138924 0 0 0.9999988932 -0.08524437782 0 0
 0.1479484619 -98.93495759 0 0 0 0 0.9998893294 -0.8524282117
0.0124929978911873 0.987752278 -8.976551966 0 0 0 0 0 0
 0.1560302436 -98.98104945 0.9999999877 -0.008994958373 0 0 0 0
 0.1560301008 -99.02152672 0 0 0.9999987677 -0.08994956544 0 0
 0.1560158252 -99.42626294 0 0 0 0 0.9998767757 -0.8994773654
0.0131825673855641 0.9863723681 -9.469831777 0 0 0 0 0 0
 0.1645282676 -99.4745775 0.9999999863 -0.009491448401 0 0 0 0
 0.1645281 -99.51728898 0 0 0.9999986279 -0.09491446252 0 0
 0.1645113394 -99.94436079 0 0 0 0 0.9998627982 -0.9491231376
0.0139101986879805 0.9848381743 -9.989957397 0 0 0 0 0 0
 0.1734755594 -99.99496507 0.9999999847 -0.01001534293 0 0 0 0
 0.1734753626 -100.0400341 0 0 0.9999984722 -0.1001534041 0 0
 0.173455686 -100.4906735 0 0 0 0 0.9998472352 -1.001508795
0.0146779926762207 0.9831327282 -10.53834459 0 0 0 0 0 0
 0.1828935152 -100.5436287 0.999999983 -0.01056815459 0 0 0 0
 0.1828932842 -100.5911853 0 0 0.9999982989 -0.1056815162 0 0
 0.1828701864 -101.0666924 0 0 0 0 0.9998299071 -1.056785502
0.0154881661891248 0.9812372619 -11.11647593 0 0 0 0 0 0
 0.1928041356 -101.1220517 0.9999999811 -0.01115147951 0 0 0 0
 0.1928038645 -101.1722333 0 0 0.999998106 -0.1115147602 0 0
 0.1927767532 -101.6739795 0 0 0 0 0.9998106137 -1.115112754
0.0163430584272314 0.9791310334 -11.72590258 0 0 0 0 0 0
 0.2032299636 -101.7317861 0.9999999789 -0.01176700191 0 0 0 0
 0.2032296453 -101.7847375 0 0 0.9999978911 -0.1176699781 0 0
 0.2031978266 -102.31417 0 0 0 0 0.999789132 -1.176658839
0.017245137706712 0.976791138 -12.3682458 0 0 0 0 0 0
 0.2141940036 -102.374454 0.9999999765 -0.01241649898 0 0 0 0
 0.2141936302 -102.4303282 0 0 0.9999976519 -0.1241649417 0 0
 0.2141562912 -102.9889736 0 0 0 0 0.9997652141 -1.241601313
0.0181970085860998 0.974192307 -13.04519828 0 0 0 0 0 0
 0.2257196202 -103.0517492 0.9999999739 -0.01310184599 0 0 0 0
 0.225719182 -103.1107074 0 0 0.9999973855 -0.1310184034 0 0
 0.2256753709 -103.7001764 0 0 0 0 0.9997385835 -1.310127518
0.019201419386388 0.9713066939 -13.75852501 0 0 0 0 0 0
 0.23783041 -103.7654375 0.9999999709 -0.01382502175 0 0 0 0
 0.237829896 -103.82765 0 0 0.9999970889 -0.1382501511 0 0
 0.2377784987 -104.449642 0 0 0 0 0.9997089329 -1.382435111
0.0202612701262114 0.9681036471 -14.5100638 0 0 0 0 0 0
 0.2505500458 -104.5173579 0.9999999676 -0.01458811427 0 0 0 0
 0.2505494428 -104.5830042 0 0 0.9999967587 -0.1458810646 0 0
 0.2504891556 -105.2393119 0 0 0 0 0.9996759197 -1.458732634
0.0213796208950223 0.9645494728 -15.30172518 0 0 0 0 0 0
 0.2639020856 -105.3094218 0.9999999639 -0.0153933268 0 0 0 0
 0.2639013784 -105.3786916 0 0 0.999996391 -0.1539331763 0 0
 0.2638306767 -106.0712063 0 0 0 0 0.9996391628 -1.539240108
0.0225597006884358 0.9606071878 -16.13549176 0 0 0 0 0 0
 0.2779097445 -106.1436133 0.9999999598 -0.01624298422 0 0 0 0
 0.2779089153 -106.2167065 0 0 0.9999959816 -0.1624297345 0 0
 0.2778260168 -106.9474234 0 0 0 0 0.9995982377 -1.624189661
0.0238049167312551 0.9562362662 -17.01341673 0 0 0 0 0 0
 0.292595621 -107.0219865 0.9999999553 -0.01713953975 0 0 0 0
 0.292594649 -107.0991142 0 0 0.9999955257 -0.1713952709 0 0
 0.2924974717 -107.8701381 0 0 0 0 0.9995526722 -1.713826193
0.0251188643150958 0.9513923826 -17.93762149 0 0 0 0 0 0
 0.3079813748 -107.9466643 0.9999999502 -0.01808558198 0 0 0 0
 0.3079802356 -108.0280491 0 0 0.9999950182 -0.1808556711 0 0
 0.3078663486 -108.8416003 0 0 0 0 0.9995019401 -1.808408069
0.0265053371790108 0.9460271574 -18.9102922 0 0 0 0 0 0
 0.3240873474 -108.9198341 0.9999999445 -0.0190838424 0 0 0 0
 0.3240860126 -109.0057111 0 0 0.999994453 -0.1908382494 0 0
 0.3239525797 -109.8641315 0 0 0 0 0.9994454561 -1.908207858
0.0279683384630908 0.9400879098 -19.93367504 0 0 0 0 0 0
 0.3409321208 -109.9437436 0.9999999382 -0.02013720328 0 0 0 0
 0.3409305574 -110.0343606 0 0 0.9999938238 -0.2013718276 0 0
 0.3407742721 -110.9401207 0 0 0 0 0.9993825682 -2.013513101
0.0295120922666639 0.933517427 -21.01007005 0 0 0 0 0 0
 0.3585320074 -111.0206944 0.9999999312 -0.02124870598 0 0 0 0
 0.3585301767 -111.1163131 0 0 0.9999931232 -0.2124868187 0 0
 0.3583471874 -112.0720183 0 0 0 0 0.9993125511 -2.124627132
0.0311410558444676 0.926253758 -22.14182323 0 0 0 0 0 0
 0.3769004637 -112.153034 0.9999999234 -0.0224215597 0 0 0 0
 0.3768983209 -112.2539305 0 0 0.9999923431 -0.2242153137 0 0
 0.3766841455 -113.262329 0 0 0 0 0.999234597 -2.241869929
0.0328599324760066 0.9182300464 -23.3313168 0 0 0 0 0 0
 0.3960474237 -113.3431464 0.9999999147 -0.02365915081 0 0 0 0
 0.3960449167 -113.4496119 0 0 0.9999914745 -0.2365911753 0 0
 0.3957943444 -114.513602 0 0 0 0 0.999147807 -2.365579021
0.0346736850452532 0.9093744141 -24.58095715 0 0 0 0 0 0
 0.4159785456 -114.5934397 0.9999999051 -0.02496505259 0 0 0 0
 0.4159756137 -114.7057816 0 0 0.9999905073 -0.2496501349 0 0
 0.4156825939 -115.8284199 0 0 0 0 0.9990511804 -2.496110435
0.0365875503699003 0.8996099147 -25.89316045 0 0 0 0 0 0
 0.4366943681 -115.906332 0.9999998943 -0.02634303554 0 0 0 0
 0.436690941 -116.0248747 0 0 0.9999894305 -0.263429896 0 0
 0.4363484566 -117.2093842 0 0 0 0 0.9989436035 -2.633839691
0.0386070543215381 0.8888545765 -27.27033547 0 0 0 0 0 0
 0.4581893766 -117.284234 0.9999998823 -0.02779707829 0 0 0 0
 0.4581853729 -117.4093198 0 0 0.9999882315 -0.2779702431 0 0
 0.4577852974 -118.6590991 0 0 0 0 0.9988238368 -2.779162857
0.0407380277804113 0.8770215572 -28.71486336 0 0 0 0 0 0
 0.4804509786 -118.7295291 0.999999869 -0.02933137907 0 0 0 0
 0.4804463041 -118.861519 0 0 0.9999868965 -0.2933131565 0 0
 0.4799792404 -120.1801513 0 0 0 0 0.9986905007 -2.932497646
0.0429866234708228 0.8640194377 -30.22907423 0 0 0 0 0 0
 0.5034583953 -120.2445494 0.9999998541 -0.03095036784 0 0 0 0
 0.5034529413 -120.3838246 0 0 0.9999854101 -0.3095029333 0 0
 0.5029080416 -121.7750876 0 0 0 0 0.9985420599 -3.094284577
0.0453593337257927 0.849752682 -31.8152201 0 0 0 0 0 0
 0.5271814789 -121.8315495 0.9999998375 -0.03265871907 0 0 0 0
 0.5271751201 -121.9785119 0 0 0.999983755 -0.3265863153 0 0
 0.5265398851 -123.4463878 0 0 0 0 0.998376806 -3.264988185
0.0478630092322638 0.8341222945 -33.47544419 0 0 0 0 0 0
 0.5515794732 -123.4926749 0.9999998191 -0.03446136526 0 0 0 0
 0.5515720654 -123.6477489 0 0 0.9999819122 -0.3446126241 0 0
 0.5508321219 -125.196435 0 0 0 0 0.9981928378 -3.4450983
0.0505048788109759 0.8170267059 -35.21174629 0 0 0 0 0 0
 0.576599741 -125.229928 0.9999997986 -0.03636351116 0 0 0 0
 0.5765911187 -125.3935614 0 0 0.9999798603 -0.3636339032 0 0
 0.5757299755 -127.0274811 0 0 0 0 0.9979880403 -3.635131382
0.05329257028812 0.7983629188 -37.02594425 0 0 0 0 0 0
 0.6021764923 -127.0451296 0.9999997758 -0.03837064879 0 0 0 0
 0.6021664661 -127.2177946 0 0 0.9999775757 -0.3837050682 0 0
 0.6011652478 -128.9416091 0 0 0 0 0.99776006 -3.835631914
0.0562341325190349 0.7780279406 -38.91963155 0 0 0 0 0 0
 0.6282295566 -128.9398758 0.9999997503 -0.04048857332 0 0 0 0
 0.6282179101 -129.1220711 0 0 0.999975032 -0.4048840652 0 0
 0.627055069 -130.9406912 0 0 0 0 0.9975062789 -4.047173874
0.0593380586275328 0.7559205291 -40.8941313 0 0 0 0 0 0
 0.6546632531 -130.915493 0.999999722 -0.04272339981 0 0 0 0
 0.6546497397 -131.1077443 0 0 0.9999721996 -0.4272320383 0 0
 0.6533007488 -133.0263431 0 0 0 0 0.9972237848 -4.270362257
0.0626133105279553 0.7319432642 -42.95044691 0 0 0 0 0 0
 0.681365425 -132.9729877 0.9999996905 -0.0450815808 0 0 0 0
 0.6813497651 -133.1758502 0 0 0.999969046 -0.4508135055 0 0
 0.6797867922 -135.1998756 0 0 0 0 0.9969093387 -4.505834678
0.0660693448007596 0.7060049504 -45.08921025 0 0 0 0 0 0
 0.7082067147 -135.1129952 0.9999996553 -0.04756992505 0 0 0 0
 0.7081885914 -135.3270544 0 0 0.9999655347 -0.4756965453 0 0
 0.7063801606 -137.4622429 0 0 0 0 0.9965593385 -4.754263032
0.0697161399963467 0.6780233376 -47.31062789 0 0 0 0 0 0
 0.7350401639 -137.3357257 0.9999996162 -0.05019561708 0 0 0 0
 0.7350192202 -137.5615996 0 0 0.999961625 -0.5019529925 0 0
 0.7329298639 -139.8139898 0 0 0 0 0.9961697787 -5.016355233
0.0735642254459642 0.6479281269 -49.61442695 0 0 0 0 0 0
 0.7617012344 -139.6409101 0.9999995727 -0.05296623802 0 0 0 0
 0.7616770691 -139.8792506 0 0 0.9999572719 -0.529658646 0 0
 0.7592669773 -142.2551975 0 0 0 0 0.9957362062 -5.292857013
