! Infineon Technologies  Discrete & RF Semiconductors
! BFP640
!
! VCE =  2.5 V,  IC =  10 mA
! Common Emitter S-Parameters:                            Sep 2002
# GHz  S  MA  R  50
!  f         S11            S21            S12            S22
! GHz     MAG   ANG      MAG   ANG      MAG   ANG      MAG   ANG
 0.100  0.8590   -8.9  25.771  171.0  0.0058   78.5  0.9911   -5.7
 0.200  0.8482  -19.7  25.347  163.0  0.0110   80.6  0.9780  -11.6
 0.300  0.8226  -29.4  24.409  155.5  0.0161   77.0  0.9497  -17.0
 0.400  0.7886  -38.4  23.226  148.3  0.0209   72.9  0.9126  -21.9
 0.500  0.7507  -46.8  21.956  141.6  0.0253   69.1  0.8711  -26.4
 0.600  0.7121  -54.7  20.684  135.4  0.0293   65.7  0.8279  -30.4
 0.700  0.6743  -62.2  19.446  129.7  0.0328   62.7  0.7849  -33.9
 0.800  0.6380  -69.1  18.259  124.6  0.0360   60.1  0.7431  -37.0
 0.900  0.6036  -75.7  17.129  120.0  0.0388   57.8  0.7032  -39.6
 1.000  0.5712  -81.8  16.065  115.9  0.0413   55.9  0.6659  -41.8
 1.100  0.5410  -87.5  15.073  112.3  0.0436   54.2  0.6314  -43.6
 1.200  0.5133  -92.9  14.161  108.9  0.0457   52.7  0.5999  -45.2
 1.300  0.4881  -98.0  13.334  105.9  0.0477   51.5  0.5714  -46.4
 1.400  0.4656 -102.9  12.593  103.0  0.0496   50.4  0.5459  -47.5
 1.500  0.4456 -107.5  11.936  100.2  0.0515   49.5  0.5231  -48.5
 1.600  0.4281 -112.0  11.353   97.6  0.0533   48.7  0.5028  -49.3
 1.700  0.4128 -116.3  10.833   95.1  0.0551   48.1  0.4846  -50.1
 1.800  0.3994 -120.5  10.363   92.7  0.0569   47.4  0.4682  -50.7
 1.900  0.3874 -124.5   9.927   90.4  0.0587   46.9  0.4533  -51.4
 2.000  0.3765 -128.4   9.514   88.3  0.0605   46.3  0.4395  -51.9
 2.200  0.3571 -135.9   8.733   84.3  0.0640   45.3  0.4147  -52.8
 2.400  0.3408 -143.1   8.030   80.7  0.0674   44.3  0.3933  -53.5
 2.600  0.3286 -150.0   7.483   77.2  0.0710   43.3  0.3757  -54.2
 2.800  0.3209 -156.4   7.105   73.6  0.0747   42.3  0.3616  -55.1
 3.000  0.3117 -162.8   6.527   70.5  0.0780   41.3  0.3468  -55.6
 3.500  0.3010 -177.2   5.736   62.4  0.0874   38.7  0.3240  -58.6
 4.000  0.2981  170.5   5.058   55.4  0.0966   35.7  0.2944  -61.2
 4.500  0.3047  159.0   4.550   48.5  0.1058   32.8  0.2757  -62.9
 5.000  0.3122  147.8   4.118   41.6  0.1152   29.6  0.2617  -65.7
 5.500  0.3221  138.0   3.762   35.5  0.1248   26.4  0.2424  -69.6
 6.000  0.3352  129.3   3.483   29.1  0.1346   22.9  0.2240  -72.5
 6.500  0.3505  120.7   3.231   22.9  0.1441   19.3  0.2064  -75.4
 7.000  0.3600  113.0   3.020   17.1  0.1540   15.8  0.1933  -78.2
 7.500  0.3771  107.0   2.861   11.0  0.1656   11.8  0.1748  -83.9
 8.000  0.3947  100.1   2.689    5.0  0.1745    7.8  0.1534  -86.3
 8.500  0.4125   95.0   2.578   -0.7  0.1868    3.9  0.1395  -92.9
 9.000  0.4350   89.2   2.463   -7.0  0.1979   -0.8  0.1127  -99.7
 9.500  0.4568   83.9   2.363  -13.0  0.2087   -5.6  0.0868 -106.3
10.000  0.4813   78.6   2.280  -19.5  0.2197  -10.9  0.0588 -118.1
10.500  0.4991   74.0   2.173  -26.1  0.2251  -16.4  0.0322 -143.4
11.000  0.5332   70.0   2.090  -31.9  0.2331  -20.1  0.0204  124.3
11.500  0.5604   65.7   2.017  -38.0  0.2410  -25.7  0.0478   83.3
12.000  0.6158   61.0   1.971  -44.9  0.2491  -29.6  0.0935   69.8
12.500  0.6507   54.3   1.880  -52.4  0.2605  -35.1  0.1343   58.4
13.000  0.6786   49.0   1.784  -58.9  0.2691  -40.7  0.1733   50.4
13.500  0.7067   43.2   1.691  -65.3  0.2760  -46.7  0.2145   42.3
14.000  0.7239   38.0   1.595  -71.7  0.2837  -54.1  0.2571   33.9
14.500  0.7513   34.8   1.505  -77.3  0.2747  -62.6  0.2856   29.7
15.000  0.7951   30.9   1.445  -82.8  0.2577  -68.1  0.3253   26.5
15.500  0.8574   25.3   1.384  -89.0  0.2466  -68.4  0.3766   24.5
16.000  0.8928   18.3   1.300  -96.2  0.2598  -72.9  0.4569   18.1
16.500  0.9130   12.1   1.202 -102.8  0.2556  -80.2  0.5203    9.7
17.000  0.9189    6.1   1.098 -108.6  0.2463  -85.2  0.5568    2.2
17.500  0.9139    1.2   0.995 -113.1  0.2413  -90.7  0.5876   -3.4
18.000  0.9057   -3.3   0.897 -115.8  0.2275  -97.3  0.6243  -10.1
18.500  0.9091   -5.2   0.846 -117.9  0.1986 -103.4  0.6147  -13.8
19.000  0.9584  -10.0   0.777 -122.5  0.1756 -100.9  0.6810  -13.5
19.500  0.9499  -16.3   0.701 -123.4  0.1753 -100.1  0.7476  -18.9
20.000  0.9250  -20.1   0.642 -123.2  0.1757 -101.2  0.7958  -23.2
!
!  f       Fmin   Gammaopt  rn/50
! GHz       dB    MAG  ANG    -
 0.900      0.47  0.15   19   0.11
 1.800      0.70  0.06  -27   0.10
 2.400      0.76  0.05   20   0.11
 3.000      0.85  0.07  178   0.10
 4.000      0.91  0.14  -92   0.12
 5.000      1.01  0.28  -70   0.17
 6.000      1.19  0.25  -89   0.16
!
! (c) 2002  Infineon Technologies AG, Munich
;$SpiceType=AMBIGUOUS
