! BLM21AG102SH1
# Hz S RI R 50
!Freq.(Hz) S11(Real) S11(Imag) S21(Real) S21(Imag) S12(Real) S12(Imag) S22(Real) S22(Imag)
1000000 0.1913417306442955 0.3548278129350418 0.8086582693557046 -0.3548278129350418 0.8086582693557046 -0.3548278129350418 0.1913417306442955 0.3548278129350418
1020217.5806586457 0.1973046892108978 0.3587493975724819 0.8026953107891022 -0.35874939757248187 0.8026953107891022 -0.35874939757248187 0.1973046892108978 0.3587493975724819
1040843.9118849806 0.20339831491431937 0.36261163890888864 0.7966016850856806 -0.36261163890888864 0.7966016850856806 -0.36261163890888864 0.20339831491431937 0.36261163890888864
1061887.2576265757 0.2096218936089972 0.3664094538424043 0.7903781063910028 -0.3664094538424043 0.7903781063910028 -0.3664094538424043 0.2096218936089972 0.3664094538424043
1083356.0489080292 0.2159744664086552 0.37013770552107944 0.7840255335913447 -0.37013770552107944 0.7840255335913447 -0.37013770552107944 0.2159744664086552 0.37013770552107944
1105258.8872088592 0.2224548219389778 0.37379121632137524 0.7775451780610221 -0.37379121632137524 0.7775451780610221 -0.37379121632137524 0.2224548219389778 0.37379121632137524
1127604.5479096894 0.2290614893175087 0.3773647816611799 0.7709385106824911 -0.3773647816611799 0.7709385106824911 -0.3773647816611799 0.2290614893175087 0.3773647816611799
1150401.9838081095 0.23579273194743458 0.380853184609434 0.7642072680525654 -0.380853184609434 0.7642072680525654 -0.380853184609434 0.23579273194743458 0.380853184609434
1173660.328705616 0.24264654221080978 0.384251211245244 0.7573534577891902 -0.384251211245244 0.7573534577891902 -0.384251211245244 0.24264654221080978 0.384251211245244
1197388.9010670746 0.24962063714465926 0.38755366670998675 0.7503793628553407 -0.38755366670998675 0.7503793628553407 -0.38755366670998675 0.24962063714465926 0.38755366670998675
1221597.2077541654 0.2567124551802109 0.39075539188647207 0.7432875448197892 -0.39075539188647207 0.7432875448197892 -0.39075539188647207 0.2567124551802109 0.39075539188647207
1246294.947834312 0.2639191540212215 0.3938512806298781 0.7360808459787785 -0.39385128062987806 0.7360808459787785 -0.39385128062987806 0.2639191540212215 0.3938512806298781
1271492.016466615 0.27123760973192984 0.39683629746602395 0.7287623902680702 -0.39683629746602395 0.7287623902680702 -0.39683629746602395 0.27123760973192984 0.39683629746602395
1297198.5088663532 0.27866441709861645 0.39970549566375363 0.7213355829013837 -0.39970549566375363 0.7213355829013837 -0.39970549566375363 0.27866441709861645 0.39970549566375363
1323424.7243496338 0.2861958913210509 0.4024540355799088 0.7138041086789492 -0.4024540355799088 0.7138041086789492 -0.4024540355799088 0.2861958913210509 0.4024540355799088
1350181.1704598186 0.29382807108133424 0.40507720316773577 0.7061719289186658 -0.40507720316773577 0.7061719289186658 -0.40507720316773577 0.29382807108133424 0.40507720316773577
1377478.5671773748 0.30155672302780373 0.40757042853272996 0.6984432769721963 -0.40757042853272996 0.6984432769721963 -0.40757042853272996 0.30155672302780373 0.40757042853272996
1405327.8512148394 0.3093773477008872 0.40992930441404485 0.6906226522991129 -0.40992930441404485 0.6906226522991129 -0.40992930441404485 0.3093773477008872 0.40992930441404485
1433740.1803986167 0.31728518691611896 0.41214960446479565 0.6827148130838812 -0.41214960446479565 0.6827148130838812 -0.41214960446479565 0.31728518691611896 0.41214960446479565
1462726.9381393672 0.32527523260712216 0.4142273012010268 0.6747247673928779 -0.4142273012010268 0.6747247673928779 -0.4142273012010268 0.32527523260712216 0.4142273012010268
1492299.737992774 0.33334223711833244 0.4161585834868815 0.6666577628816676 -0.41615858348688156 0.6666577628816676 -0.41615858348688156 0.33334223711833244 0.4161585834868815
1522470.428312519 0.34148072492375936 0.41793987342273053 0.6585192750762405 -0.41793987342273053 0.6585192750762405 -0.41793987342273053 0.34148072492375936 0.41793987342273053
1553251.0969973304 0.34968500573432115 0.4195678425037475 0.6503149942656787 -0.4195678425037475 0.6503149942656787 -0.4195678425037475 0.34968500573432115 0.4195678425037475
1584654.076334004 0.35794918894244093 0.42103942691873975 0.6420508110575591 -0.42103942691873975 0.6420508110575591 -0.42103942691873975 0.35794918894244093 0.42103942691873975
1616691.9479383389 0.3662671993388465 0.42235184186295444 0.6337328006611536 -0.42235184186295444 0.6337328006611536 -0.42235184186295444 0.3662671993388465 0.42235184186295444
1649377.5477959653 0.37463279402309757 0.42350259474412777 0.6253672059769022 -0.42350259474412777 0.6253672059769022 -0.42350259474412777 0.37463279402309757 0.42350259474412777
1682723.9714050898 0.3830395804164558 0.4244894971681597 0.6169604195835443 -0.42448949716815976 0.6169604195835443 -0.42448949716815976 0.3830395804164558 0.4244894971681597
1716744.5790232092 0.3914810352735359 0.42531067559945573 0.6085189647264642 -0.42531067559945573 0.6085189647264642 -0.42531067559945573 0.3914810352735359 0.42531067559945573
1751453.001019904 0.399950524577951 0.4259645806010876 0.600049475422049 -0.4259645806010876 0.600049475422049 -0.4259645806010876 0.399950524577951 0.4259645806010876
1786863.143337851 0.40844132419702545 0.426449994571364 0.5915586758029746 -0.426449994571364 0.5915586758029746 -0.426449994571364 0.40844132419702545 0.426449994571364
1822989.1930642454 0.4169466411618376 0.42676603790604406 0.5830533588381623 -0.426766037906044 0.5830533588381623 -0.426766037906044 0.4169466411618376 0.42676603790604406
1859845.6241148617 0.42545963543147874 0.42691217352910116 0.5745403645685212 -0.42691217352910105 0.5745403645685212 -0.42691217352910105 0.42545963543147874 0.42691217352910116
1897447.2030330333 0.4339734419946199 0.4268882097494606 0.5660265580053802 -0.4268882097494606 0.5660265580053802 -0.4268882097494606 0.4339734419946199 0.4268882097494606
1935808.994905876 0.44248119315738293 0.42669430141629533 0.557518806842617 -0.42669430141629533 0.557518806842617 -0.42669430141629533 0.44248119315738293 0.42669430141629533
1974946.3694001175 0.45097604086417015 0.4263309493610447 0.5490239591358297 -0.4263309493610447 0.5490239591358297 -0.4263309493610447 0.45097604086417015 0.4263309493610447
2014875.0069199642 0.45945117889758164 0.42579899813009703 0.5405488211024183 -0.42579899813009703 0.5405488211024183 -0.42579899813009703 0.45945117889758164 0.42579899813009703
2055610.9048894579 0.4678998648048385 0.4250996320278092 0.5321001351951615 -0.4250996320278093 0.5321001351951615 -0.4250996320278093 0.4678998648048385 0.4250996320278092
2097170.3841618528 0.47631544140123294 0.4242343695050063 0.5236845585987672 -0.4242343695050063 0.5236845585987672 -0.4242343695050063 0.47631544140123294 0.4242343695050063
2139570.0955585684 0.4846913577059575 0.4232050559430596 0.5153086422940424 -0.4232050559430596 0.5153086422940424 -0.4232050559430596 0.4846913577059575 0.4232050559430596
2182827.0265403506 0.49302118917217946 0.4220138548979007 0.5069788108278205 -0.42201385489790083 0.5069788108278205 -0.42201385489790083 0.49302118917217946 0.4220138548979007
2226958.508013302 0.5012986570812791 0.4206632378816504 0.498701342918721 -0.4206632378816504 0.498701342918721 -0.4206632378816504 0.5012986570812791 0.4206632378816504
2271982.2212725184 0.509517646980641 0.419155972771778 0.4904823530193589 -0.419155972771778 0.4904823530193589 -0.419155972771778 0.509517646980641 0.419155972771778
2317916.205086105 0.5176722260551001 0.41749511094867825 0.4823277739448999 -0.41749511094867825 0.4823277739448999 -0.41749511094867825 0.5176722260551001 0.41749511094867825
2364778.8629224156 0.5257566593339258 0.41568397327212003 0.4742433406660741 -0.41568397327212003 0.4742433406660741 -0.41568397327212003 0.5257566593339258 0.41568397327212003
2412588.9703234104 0.533765424647893 0.41372613501510497 0.466234575352107 -0.41372613501510497 0.466234575352107 -0.41372613501510497 0.533765424647893 0.41372613501510497
2461365.6824270836 0.5416932262642924 0.41162540988016255 0.45830677373570766 -0.41162540988016255 0.45830677373570766 -0.41162540988016255 0.5416932262642924 0.41162540988016255
2511128.5416419758 0.5495350071415178 0.4093858332279814 0.45046499285848224 -0.40938583322798133 0.45046499285848224 -0.40938583322798133 0.5495350071415178 0.4093858332279814
2561897.48547685 0.5572859597588795 0.40701164465150297 0.4427140402411207 -0.40701164465150297 0.4427140402411207 -0.40701164465150297 0.5572859597588795 0.40701164465150297
2613692.85452866 0.5649415354913321 0.4045072700302021 0.435058464508668 -0.40450727003020215 0.435058464508668 -0.40450727003020215 0.5649415354913321 0.4045072700302021
2666535.4006320196 0.5724974525126981 0.40187730319928616 0.42750254748730177 -0.40187730319928616 0.42750254748730177 -0.40187730319928616 0.5724974525126981 0.40187730319928616
2720446.295173432 0.5799497022244714 0.3991264873670301 0.42005029777552855 -0.3991264873670301 0.42005029777552855 -0.3991264873670301 0.5799497022244714 0.3991264873670301
2775447.1375736147 0.587294554220288 0.3962596964105134 0.4127054457797121 -0.3962596964105134 0.4127054457797121 -0.3962596964105134 0.587294554220288 0.3962596964105134
2831559.9639413175 0.5945285598084442 0.3932819161757492 0.4054714401915558 -0.3932819161757492 0.4054714401915558 -0.3932819161757492 0.5945285598084442 0.3932819161757492
2888807.2559020934 0.601648554126319 0.390198225902723 0.39835144587368104 -0.39019822590272296 0.39835144587368104 -0.39019822590272296 0.601648554126319 0.390198225902723
2947211.9496055758 0.6086516568910981 0.3870137798893152 0.39134834310890193 -0.3870137798893152 0.39134834310890193 -0.3870137798893152 0.6086516568910981 0.3870137798893152
3006797.4449148513 0.615535271840693 0.3837337895006448 0.384464728159307 -0.3837337895006448 0.384464728159307 -0.3837337895006448 0.615535271840693 0.3837337895006448
3067587.614781628 0.6222970849271644 0.3803635056221542 0.37770291507283565 -0.3803635056221542 0.37770291507283565 -0.3803635056221542 0.6222970849271644 0.3803635056221542
3129606.8148109377 0.6289350613322049 0.3769082016459576 0.3710649386677952 -0.37690820164595756 0.3710649386677952 -0.37690820164595756 0.6289350613322049 0.3769082016459576
3192879.8930192254 0.6354474413803248 0.37337315707072083 0.3645525586196751 -0.37337315707072083 0.3645525586196751 -0.37337315707072083 0.6354474413803248 0.37337315707072083
3257432.19978971 0.6418327354302934 0.3697636417858023 0.35816726456970677 -0.3697636417858023 0.35816726456970677 -0.3697636417858023 0.6418327354302934 0.3697636417858023
3323289.598029029 0.6480897178291302 0.36608490110069075 0.3519102821708699 -0.36608490110069075 0.3519102821708699 -0.36608490110069075 0.6480897178291302 0.36608490110069075
3390478.473529219 0.6542174200155715 0.3623421415710908 0.34578257998442846 -0.36234214157109085 0.34578257998442846 -0.36234214157109085 0.6542174200155715 0.3623421415710908
3459025.745539199 0.6602151228614637 0.3585405176634171 0.3397848771385363 -0.35854051766341705 0.3397848771385363 -0.35854051766341705 0.6602151228614637 0.3585405176634171
3528958.8775499705 0.6660823483400707 0.35468511929012353 0.33391765165992926 -0.3546851192901235 0.33391765165992926 -0.3546851192901235 0.6660823483400707 0.35468511929012353
3600305.888297882 0.6718188506098538 0.3507809602392783 0.32818114939014614 -0.35078096023927835 0.32818114939014614 -0.35078096023927835 0.6718188506098538 0.3507809602392783
3673095.3629903416 0.6774246066009965 0.3468329675132084 0.32257539339900354 -0.34683296751320836 0.32257539339900354 -0.34683296751320836 0.6774246066009965 0.3468329675132084
3747356.464758497 0.6828998061898813 0.3428459715829401 0.31710019381011867 -0.3428459715829401 0.31710019381011867 -0.3428459715829401 0.6828998061898813 0.3428459715829401
3823118.9463414503 0.6882448420439747 0.3388246975576291 0.31175515795602515 -0.3388246975576291 0.31175515795602515 -0.3388246975576291 0.6882448420439747 0.3388246975576291
3900413.162006705 0.6934602992162271 0.334773757261222 0.3065397007837729 -0.33477375726122205 0.3065397007837729 -0.33477375726122205 0.6934602992162271 0.334773757261222
3979270.079711619 0.6985469445642492 0.3306976422022907 0.3014530554357508 -0.3306976422022907 0.3014530554357508 -0.3306976422022907 0.6985469445642492 0.3306976422022907
4059721.293510725 0.7035057160652674 0.32660071741731495 0.29649428393473254 -0.32660071741731495 0.29649428393473254 -0.32660071741731495 0.7035057160652674 0.32660071741731495
4141799.036213901 0.7083377120932771 0.3224872161626923 0.2916622879067228 -0.3224872161626923 0.2916622879067228 -0.3224872161626923 0.7083377120932771 0.3224872161626923
4225536.192300457 0.7130441807200015 0.31836123542640793 0.28695581927999836 -0.31836123542640793 0.28695581927999836 -0.31836123542640793 0.7130441807200015 0.31836123542640793
4310966.311094318 0.7176265090962797 0.31422673222659653 0.2823734909037202 -0.31422673222659653 0.2823734909037202 -0.31422673222659653 0.7176265090962797 0.31422673222659653
4398123.620205573 0.7220862129654475 0.3100875206611617 0.2779137870345525 -0.3100875206611617 0.2779137870345525 -0.3100875206611617 0.7220862129654475 0.3100875206611617
4487043.039243775 0.7264249263551913 0.3059472696701368 0.27357507364480876 -0.3059472696701368 0.27357507364480876 -0.3059472696701368 0.7264249263551913 0.3059472696701368
4577760.193808501 0.7306443914893105 0.30180950147056923 0.26935560851068946 -0.30180950147056923 0.26935560851068946 -0.30180950147056923 0.7306443914893105 0.30180950147056923
4670311.429762763 0.7347464489558713 0.29767759062233823 0.2652535510441288 -0.29767759062233823 0.2652535510441288 -0.29767759062233823 0.7347464489558713 0.29767759062233823
4764733.827794988 0.7387330281634182 0.29355476368243244 0.2612669718365817 -0.2935547636824324 0.2612669718365817 -0.2935547636824324 0.7387330281634182 0.29355476368243244
4861065.21827541 0.7426061381122787 0.2894440994047835 0.2573938618877213 -0.28944409940478355 0.2573938618877213 -0.28944409940478355 0.7426061381122787 0.2894440994047835
4959344.196412832 0.7463678585035458 0.2853485294427359 0.2536321414964543 -0.285348529442736 0.2536321414964543 -0.285348529442736 0.7463678585035458 0.2853485294427359
5059610.137717796 0.7500203312041446 0.281270839511574 0.24997966879585548 -0.28127083951157406 0.24997966879585548 -0.28127083951157406 0.7500203312041446 0.281270839511574
5161903.213778406 0.7535657520824229 0.277213670969194 0.24643424791757718 -0.277213670969194 0.24643424791757718 -0.277213670969194 0.7535657520824229 0.277213670969194
5266264.408355095 0.7570063632250322 0.27317952277396357 0.24299363677496777 -0.2731795227739635 0.24299363677496777 -0.2731795227739635 0.7570063632250322 0.27317952277396357
5372735.53380077 0.760344445542451 0.2691707537799935 0.23965555445754913 -0.2691707537799935 0.23965555445754913 -0.2691707537799935 0.760344445542451 0.2691707537799935
5481359.247812959 0.7635823117673742 0.26518958533144227 0.2364176882326259 -0.2651895853314422 0.2364176882326259 -0.2651895853314422 0.7635823117673742 0.26518958533144227
5592179.070524633 0.7667222998473417 0.2612381041190268 0.23327770015265836 -0.2612381041190268 0.23327770015265836 -0.2612381041190268 0.7667222998473417 0.2612381041190268
5705239.401940554 0.7697667667303958 0.2573182652636044 0.23023323326960418 -0.2573182652636044 0.23023323326960418 -0.2573182652636044 0.7697667667303958 0.2573182652636044
5820585.539726173 0.7727180825402572 0.2534318955934756 0.22728191745974285 -0.2534318955934757 0.22728191745974285 -0.2534318955934757 0.7727180825402572 0.2534318955934756
5938263.697356135 0.7755786251354585 0.2495806970839197 0.22442137486454147 -0.2495806970839197 0.22442137486454147 -0.2495806970839197 0.7755786251354585 0.2495806970839197
6058321.022629742 0.7783507750450804 0.24576625042937714 0.22164922495491962 -0.2457662504293771 0.22164922495491962 -0.2457662504293771 0.7783507750450804 0.24576625042937714
6180805.616560727 0.7810369107721727 0.24199001872062495 0.21896308922782717 -0.241990018720625 0.21896308922782717 -0.241990018720625 0.7810369107721727 0.24199001872062495
6305766.552648956 0.7836394044546156 0.23825335120121768 0.21636059554538437 -0.23825335120121763 0.21636059554538437 -0.23825335120121763 0.7836394044546156 0.23825335120121768
6433253.896541728 0.7861606178720454 0.23455748707937954 0.21383938212795459 -0.23455748707937954 0.21383938212795459 -0.23455748707937954 0.7861606178720454 0.23455748707937954
6563318.726092607 0.7886028987865497 0.23090355937342327 0.21139710121345032 -0.2309035593734233 0.21139710121345032 -0.2309035593734233 0.7886028987865497 0.23090355937342327
6696013.151825783 0.7909685776040803 0.22729259877060123 0.20903142239591957 -0.2272925987706013 0.20903142239591957 -0.2272925987706013 0.7909685776040803 0.22729259877060123
6831390.3378141755 0.7932599643429603 0.22372553748108587 0.20674003565703972 -0.2237255374810858 0.20674003565703972 -0.2237255374810858 0.7932599643429603 0.22372553748108587
6969504.522979628 0.7954793458954189 0.22020321307049398 0.20452065410458095 -0.22020321307049398 0.20452065410458095 -0.22020321307049398 0.7954793458954189 0.22020321307049398
7110411.042823766 0.7976289835678071 0.2167263722560214 0.20237101643219285 -0.2167263722560214 0.20237101643219285 -0.2167263722560214 0.7976289835678071 0.2167263722560214
7254166.351598181 0.7997111108849568 0.2132956746528268 0.2002888891150431 -0.21329567465282678 0.2002888891150431 -0.21329567465282678 0.7997111108849568 0.2132956746528268
7400828.044922852 0.801727931644096 0.20991169645880267 0.19827206835590397 -0.2099116964588027 0.19827206835590397 -0.2099116964588027 0.801727931644096 0.20991169645880267
7550454.882861849 0.8036816182037511 0.20657493406728367 0.19631838179624894 -0.20657493406728367 0.19631838179624894 -0.20657493406728367 0.8036816182037511 0.20657493406728367
7703106.813465573 0.8055743099931897 0.20328580759857112 0.19442569000681034 -0.20328580759857115 0.19442569000681034 -0.20328580759857115 0.8055743099931897 0.20328580759857112
7858844.996788979 0.8074081122281367 0.20004466434240717 0.1925918877718632 -0.20004466434240717 0.1925918877718632 -0.20004466434240717 0.8074081122281367 0.20004466434240717
8017731.829395356 0.8091850948187472 0.19685178210469184 0.1908149051812527 -0.19685178210469184 0.1908149051812527 -0.19685178210469184 0.8091850948187472 0.19685178210469184
8179830.96935555 0.8109072914561162 0.19370737245282668 0.18909270854388388 -0.19370737245282668 0.18909270854388388 -0.19370737245282668 0.8109072914561162 0.19370737245282668
8345207.361752584 0.8125766988639489 0.19061158385507437 0.187423301136051 -0.19061158385507426 0.187423301136051 -0.19061158385507426 0.8125766988639489 0.19061158385507437
8513927.264701942 0.8141952762023943 0.1875645047102564 0.18580472379760557 -0.18756450471025635 0.18580472379760557 -0.18756450471025635 0.8141952762023943 0.1875645047102564
8686058.2758979 0.8157649446114406 0.18456616626497185 0.18423505538855933 -0.18456616626497183 0.18423505538855933 -0.18456616626497183 0.8157649446114406 0.18456616626497185
8861669.359696561 0.8172875868817089 0.18161654541630817 0.18271241311829114 -0.18161654541630817 0.18271241311829114 -0.18161654541630817 0.8172875868817089 0.18161654541630817
9040830.874746477 0.818765047240915 0.17871556739874522 0.181234952759085 -0.17871556739874525 0.181234952759085 -0.17871556739874525 0.818765047240915 0.17871556739874522
9223614.602177842 0.8201991312447228 0.17586310835461452 0.17980086875527723 -0.17586310835461444 0.17980086875527723 -0.17586310835461444 0.8201991312447228 0.17586310835461452
9410093.774361636 0.8215916057611714 0.17305899778808476 0.17840839423882854 -0.17305899778808473 0.17840839423882854 -0.17305899778808473 0.8215916057611714 0.17305899778808476
